Freq.	V(vout1)	V(vout2)
1.00000000000000e+000	-1.80252839522871e+000,3.73829560984855e-003	-1.99999999940289e+000,3.45575191791704e-005
1.02329299228075e+000	-1.80251709053806e+000,3.82462155209280e-003	-1.99999999937475e+000,3.53624672061552e-005
1.04712854805090e+000	-1.80250525789872e+000,3.91290495853172e-003	-1.99999999934528e+000,3.61861648812835e-005
1.07151930523761e+000	-1.80249287278870e+000,4.00318764954536e-003	-1.99999999931442e+000,3.70290489399620e-005
1.09647819614318e+000	-1.80247990975666e+000,4.09551215519849e-003	-1.99999999928211e+000,3.78915662904721e-005
1.12201845430196e+000	-1.80246634210949e+000,4.18992171228334e-003	-1.99999999924828e+000,3.87741742509258e-005
1.14815362149688e+000	-1.80245214187604e+000,4.28646026117069e-003	-1.99999999921285e+000,3.96773407917424e-005
1.17489755493953e+000	-1.80243727999460e+000,4.38517244231247e-003	-1.99999999917576e+000,4.06015447837722e-005
1.20226443461741e+000	-1.80242172597376e+000,4.48610358888961e-003	-1.99999999913691e+000,4.15472762522004e-005
1.23026877081238e+000	-1.80240544793606e+000,4.58929971949940e-003	-1.99999999909624e+000,4.25150366363645e-005
1.25892541179417e+000	-1.80238841271416e+000,4.69480752939321e-003	-1.99999999905364e+000,4.35053390556249e-005
1.28824955169313e+000	-1.80237058550081e+000,4.80267437764787e-003	-1.99999999900904e+000,4.45187085814263e-005
1.31825673855641e+000	-1.80235193000968e+000,4.91294827472153e-003	-1.99999999896234e+000,4.55556825156989e-005
1.34896288259165e+000	-1.80233240841039e+000,5.02567786674045e-003	-1.99999999891344e+000,4.66168106757417e-005
1.38038426460288e+000	-1.80231198103755e+000,5.14091241616734e-003	-1.99999999886223e+000,4.77026556857437e-005
1.41253754462275e+000	-1.80229060666160e+000,5.25870178284150e-003	-1.99999999880861e+000,4.88137932750945e-005
1.44543977074593e+000	-1.80226824207374e+000,5.37909639860892e-003	-1.99999999875246e+000,4.99508125836433e-005
1.47910838816821e+000	-1.80224484224896e+000,5.50214724207354e-003	-1.99999999869366e+000,5.11143164740688e-005
1.51356124843621e+000	-1.80222036018865e+000,5.62790580843265e-003	-1.99999999863210e+000,5.23049218515252e-005
1.54881661891248e+000	-1.80219474685064e+000,5.75642407636390e-003	-1.99999999856763e+000,5.35232599907330e-005
1.58489319246111e+000	-1.80216795109148e+000,5.88775447133144e-003	-1.99999999850013e+000,5.47699768706893e-005
1.62181009735893e+000	-1.80213991946701e+000,6.02194982409564e-003	-1.99999999842944e+000,5.60457335171745e-005
1.65958690743756e+000	-1.80211059632947e+000,6.15906332686403e-003	-1.99999999835542e+000,5.73512063532367e-005
1.69824365246174e+000	-1.80207992360402e+000,6.29914848300280e-003	-1.99999999827791e+000,5.86870875578403e-005
1.73780082874937e+000	-1.80204784078755e+000,6.44225905337411e-003	-1.99999999819675e+000,6.00540854328680e-005
1.77827941003892e+000	-1.80201428470308e+000,6.58844899597969e-003	-1.99999999811177e+000,6.14529247786723e-005
1.81970085860998e+000	-1.80197918967163e+000,6.73777240302131e-003	-1.99999999802278e+000,6.28843472783736e-005
1.86208713666287e+000	-1.80194248707787e+000,6.89028342806168e-003	-1.99999999792960e+000,6.43491118911109e-005
1.90546071796325e+000	-1.80190410563417e+000,7.04603621194392e-003	-1.99999999783202e+000,6.58479952544514e-005
1.94984459975804e+000	-1.80186397098767e+000,7.20508479759530e-003	-1.99999999772985e+000,6.73817920961741e-005
1.99526231496888e+000	-1.80182200570778e+000,7.36748304062599e-003	-1.99999999762286e+000,6.89513156556452e-005
2.04173794466953e+000	-1.80177812929628e+000,7.53328451292119e-003	-1.99999999751083e+000,7.05573981150076e-005
2.08929613085404e+000	-1.80173225791931e+000,7.70254239640012e-003	-1.99999999739352e+000,7.22008910404156e-005
2.13796208950223e+000	-1.80168430440317e+000,7.87530937066713e-003	-1.99999999727068e+000,7.38826658335457e-005
2.18776162394955e+000	-1.80163417805071e+000,8.05163749066715e-003	-1.99999999714205e+000,7.56036141936256e-005
2.23872113856834e+000	-1.80158178467153e+000,8.23157805707466e-003	-1.99999999700736e+000,7.73646485902247e-005
2.29086765276777e+000	-1.80152702627440e+000,8.41518147432949e-003	-1.99999999686632e+000,7.91667027470572e-005
2.34422881531992e+000	-1.80146980118867e+000,8.60249710233509e-003	-1.99999999671863e+000,8.10107321370551e-005
2.39883291901949e+000	-1.80141000372113e+000,8.79357309362215e-003	-1.99999999656398e+000,8.28977144889719e-005
2.45470891568503e+000	-1.80134752420170e+000,8.98845622293004e-003	-1.99999999640205e+000,8.48286503057873e-005
2.51188643150958e+000	-1.80128224895764e+000,9.18719170477135e-003	-1.99999999623248e+000,8.68045633951873e-005
2.57039578276886e+000	-1.80121405992717e+000,9.38982299552695e-003	-1.99999999605493e+000,8.88265014123996e-005
2.63026799189538e+000	-1.80114283485462e+000,9.59639158854599e-003	-1.99999999586900e+000,9.08955364156752e-005
2.69153480392691e+000	-1.80106844707924e+000,9.80693679240707e-003	-1.99999999567431e+000,9.30127654347063e-005
2.75422870333816e+000	-1.80099076531421e+000,1.00214954954165e-002	-1.99999999547045e+000,9.51793110522867e-005
2.81838293126445e+000	-1.80090965394252e+000,1.02401019215203e-002	-1.99999999525698e+000,9.73963219995194e-005
2.88403150312660e+000	-1.80082497247034e+000,1.04627873629944e-002	-1.99999999503345e+000,9.96649737648889e-005
2.95120922666638e+000	-1.80073657569924e+000,1.06895799056984e-002	-1.99999999479938e+000,1.01986469217520e-004
3.01995172040201e+000	-1.80064431375853e+000,1.09205041377689e-002	-1.99999999455428e+000,1.04362039244956e-004
3.09029543251359e+000	-1.80054803182428e+000,1.11555808391086e-002	-1.99999999429763e+000,1.06792943405788e-004
3.16227766016837e+000	-1.80044757026190e+000,1.13948266596578e-002	-1.99999999402889e+000,1.09280470597494e-004
3.23593656929628e+000	-1.80034276449990e+000,1.16382537783973e-002	-1.99999999374748e+000,1.11825939739824e-004
3.31131121482591e+000	-1.80023344495456e+000,1.18858695464168e-002	-1.99999999345281e+000,1.14430700474112e-004
3.38844156139202e+000	-1.80011943725058e+000,1.21376761171198e-002	-1.99999999314425e+000,1.17096133878871e-004
3.46736850452531e+000	-1.80000056208096e+000,1.23936700554834e-002	-1.99999999282115e+000,1.19823653202061e-004
3.54813389233575e+000	-1.79987663510906e+000,1.26538419311210e-002	-1.99999999248282e+000,1.22614704610406e-004
3.63078054770101e+000	-1.79974746735939e+000,1.29181759014623e-002	-1.99999999212854e+000,1.25470767956177e-004
3.71535229097172e+000	-1.79961286507488e+000,1.31866492720653e-002	-1.99999999175757e+000,1.28393357561826e-004
3.80189396320560e+000	-1.79947262974900e+000,1.34592320434991e-002	-1.99999999136912e+000,1.31384023022895e-004
3.89045144994280e+000	-1.79932655852909e+000,1.37358864485728e-002	-1.99999999096236e+000,1.34444350029639e-004
3.98107170553496e+000	-1.79917444410502e+000,1.40165664683198e-002	-1.99999999053643e+000,1.37575961207771e-004
4.07380277804112e+000	-1.79901607503117e+000,1.43012173409418e-002	-1.99999999009042e+000,1.40780516978807e-004
4.16869383470335e+000	-1.79885123593363e+000,1.45897750573433e-002	-1.99999998962340e+000,1.44059716440435e-004
4.26579518801592e+000	-1.79867970776326e+000,1.48821658469221e-002	-1.99999998913437e+000,1.47415298267404e-004
4.36515832240165e+000	-1.79850126807989e+000,1.51783056551365e-002	-1.99999998862228e+000,1.50849041633388e-004
4.46683592150962e+000	-1.79831569142627e+000,1.54780996157700e-002	-1.99999998808607e+000,1.54362767154328e-004
4.57088189614874e+000	-1.79812274978684e+000,1.57814415202278e-002	-1.99999998752458e+000,1.57958337853744e-004
4.67735141287197e+000	-1.79792221265219e+000,1.60882132783968e-002	-1.99999998693663e+000,1.61637660150535e-004
4.78630092322637e+000	-1.79771384807833e+000,1.63982843970789e-002	-1.99999998632098e+000,1.65402684869785e-004
4.89778819368445e+000	-1.79749742267431e+000,1.67115114449386e-002	-1.99999998567630e+000,1.69255408277115e-004
5.01187233627271e+000	-1.79727270249810e+000,1.70277375406423e-002	-1.99999998500125e+000,1.73197873137131e-004
5.12861383991364e+000	-1.79703945366211e+000,1.73467918481958e-002	-1.99999998429438e+000,1.77232169796517e-004
5.24807460249771e+000	-1.79679744277577e+000,1.76684890854350e-002	-1.99999998355420e+000,1.81360437292369e-004
5.37031796370252e+000	-1.79654643794043e+000,1.79926290635093e-002	-1.99999998277913e+000,1.85584864486334e-004
5.49540873857623e+000	-1.79628620962012e+000,1.83189962505746e-002	-1.99999998196753e+000,1.89907691225175e-004
5.62341325190348e+000	-1.79601653123172e+000,1.86473593616856e-002	-1.99999998111769e+000,1.94331209528363e-004
5.75439937337156e+000	-1.79573718025009e+000,1.89774709959116e-002	-1.99999998022779e+000,1.98857764803335e-004
5.88843655355588e+000	-1.79544793910244e+000,1.93090673131792e-002	-1.99999997929596e+000,2.03489757089058e-004
6.02559586074356e+000	-1.79514859636453e+000,1.96418677673725e-002	-1.99999997832021e+000,2.08229642328556e-004
6.16595001861481e+000	-1.79483894756288e+000,1.99755748884037e-002	-1.99999997729847e+000,2.13079933671083e-004
6.30957344480192e+000	-1.79451879671514e+000,2.03098741435524e-002	-1.99999997622858e+000,2.18043202804626e-004
6.45654229034654e+000	-1.79418795724540e+000,2.06444338572216e-002	-1.99999997510827e+000,2.23122081319442e-004
6.60693448007594e+000	-1.79384625334215e+000,2.09789052185166e-002	-1.99999997393516e+000,2.28319262103360e-004
6.76082975391980e+000	-1.79349352120245e+000,2.13129223725200e-002	-1.99999997270676e+000,2.33637500769581e-004
6.91830970918935e+000	-1.79312961052414e+000,2.16461026105463e-002	-1.99999997142047e+000,2.39079617117738e-004
7.07945784384136e+000	-1.79275438565194e+000,2.19780466533344e-002	-1.99999997007356e+000,2.44648496628987e-004
7.24435960074988e+000	-1.79236772718256e+000,2.23083390523183e-002	-1.99999996866317e+000,2.50347091995921e-004
7.41310241300916e+000	-1.79196953327029e+000,2.26365486985257e-002	-1.99999996718631e+000,2.56178424688122e-004
7.58577575029182e+000	-1.79155972116467e+000,2.29622294574802e-002	-1.99999996563985e+000,2.62145586554179e-004
7.76247116628690e+000	-1.79113822841276e+000,2.32849209222444e-002	-1.99999996402050e+000,2.68251741461023e-004
7.94328234724279e+000	-1.79070501450001e+000,2.36041493080334e-002	-1.99999996232484e+000,2.74500126971444e-004
8.12830516164097e+000	-1.79026006223947e+000,2.39194284759330e-002	-1.99999996054926e+000,2.80894056060681e-004
8.31763771102669e+000	-1.78980337892479e+000,2.42302610884905e-002	-1.99999995869001e+000,2.87436918873003e-004
8.51138038202374e+000	-1.78933499781456e+000,2.45361399132467e-002	-1.99999995674313e+000,2.94132184519196e-004
8.70963589956078e+000	-1.78885497930668e+000,2.48365492586006e-002	-1.99999995470449e+000,3.00983402915925e-004
8.91250938133743e+000	-1.78836341211828e+000,2.51309665488036e-002	-1.99999995256978e+000,3.07994206667941e-004
9.12010839355907e+000	-1.78786041444792e+000,2.54188640350310e-002	-1.99999995033447e+000,3.15168312994124e-004
9.33254300796988e+000	-1.78734613466159e+000,2.56997106258181e-002	-1.99999994799380e+000,3.22509525698391e-004
9.54992586021433e+000	-1.78682075244373e+000,2.59729738559682e-002	-1.99999994554283e+000,3.30021737186516e-004
9.77237220955808e+000	-1.78628447928553e+000,2.62381219557187e-002	-1.99999994297634e+000,3.37708930529919e-004
9.99999999999997e+000	-1.78573755923362e+000,2.64946260352349e-002	-1.99999994028890e+000,3.45575181577538e-004
1.02329299228075e+001	-1.78518026876934e+000,2.67419623413132e-002	-1.99999993747480e+000,3.53624661116877e-004
1.04712854805090e+001	-1.78461291773251e+000,2.69796146262761e-002	-1.99999993452808e+000,3.61861637085403e-004
1.07151930523760e+001	-1.78403584879803e+000,2.72070765436368e-002	-1.99999993144248e+000,3.70290476833451e-004
1.09647819614318e+001	-1.78344943741748e+000,2.74238541068762e-002	-1.99999992821146e+000,3.78915649439828e-004
1.12201845430196e+001	-1.78285409137013e+000,2.76294681685437e-002	-1.99999992482817e+000,3.87741728081366e-004
1.14815362149688e+001	-1.78225025028589e+000,2.78234569098710e-002	-1.99999992128543e+000,3.96773392457659e-004
1.17489755493953e+001	-1.78163838463825e+000,2.80053783047692e-002	-1.99999991757573e+000,4.06015431272286e-004
1.20226443461741e+001	-1.78101899462494e+000,2.81748125479297e-002	-1.99999991369120e+000,4.15472744771819e-004
1.23026877081238e+001	-1.78039260909548e+000,2.83313644289913e-002	-1.99999990962359e+000,4.25150347343979e-004
1.25892541179416e+001	-1.77975978372059e+000,2.84746656052395e-002	-1.99999990536428e+000,4.35053370176309e-004
1.28824955169313e+001	-1.77912109964300e+000,2.86043767867011e-002	-1.99999990090423e+000,4.45187063976765e-004
1.31825673855640e+001	-1.77847716118982e+000,2.87201897677919e-002	-1.99999989623399e+000,4.55556801757688e-004
1.34896288259165e+001	-1.77782859387179e+000,2.88218293202161e-002	-1.99999989134365e+000,4.66168081684614e-004
1.38038426460288e+001	-1.77717604229113e+000,2.89090549147036e-002	-1.99999988622284e+000,4.77026529991445e-004
1.41253754462275e+001	-1.77652016727038e+000,2.89816622304960e-002	-1.99999988086069e+000,4.88137903963516e-004
1.44543977074592e+001	-1.77586164357203e+000,2.90394844768121e-002	-1.99999987524582e+000,4.99508094990147e-004
1.47910838816820e+001	-1.77520115702449e+000,2.90823934740265e-002	-1.99999986936634e+000,5.11143131688298e-004
1.51356124843620e+001	-1.77453940168677e+000,2.91103005005694e-002	-1.99999986320977e+000,5.23049183098978e-004
1.54881661891248e+001	-1.77387707706143e+000,2.91231568951781e-002	-1.99999985676304e+000,5.35232561958109e-004
1.58489319246111e+001	-1.77321488490556e+000,2.91209543925303e-002	-1.99999985001249e+000,5.47699728043570e-004
1.62181009735892e+001	-1.77255352660401e+000,2.91037252174204e-002	-1.99999984294380e+000,5.60457291600210e-004
1.65958690743755e+001	-1.77189369988640e+000,2.90715418976861e-002	-1.99999983554197e+000,5.73512016844627e-004
1.69824365246174e+001	-1.77123609605884e+000,2.90245168337123e-002	-1.99999982779130e+000,5.86870825551587e-004
1.73780082874937e+001	-1.77058139702300e+000,2.89628016062710e-002	-1.99999981967536e+000,6.00540800723982e-004
1.77827941003892e+001	-1.76993027267984e+000,2.88865860487324e-002	-1.99999981117692e+000,6.14529190348254e-004
1.81970085860998e+001	-1.76928337798195e+000,2.87960970710524e-002	-1.99999980227796e+000,6.28843411237309e-004
1.86208713666286e+001	-1.76864135054646e+000,2.86915972768831e-002	-1.99999979295961e+000,6.43491052962924e-004
1.90546071796324e+001	-1.76800480821653e+000,2.85733833701781e-002	-1.99999978320210e+000,6.58479881879761e-004
1.94984459975804e+001	-1.76737434670109e+000,2.84417843729139e-002	-1.99999977298473e+000,6.73817845243095e-004
1.99526231496887e+001	-1.76675053777028e+000,2.82971596879598e-002	-1.99999976228583e+000,6.89513075422461e-004
2.04173794466952e+001	-1.76613392717302e+000,2.81398970023268e-002	-1.99999975108271e+000,7.05573894213440e-004
2.08929613085403e+001	-1.76552503305510e+000,2.79704100767035e-002	-1.99999973935160e+000,7.22008817249873e-004
2.13796208950222e+001	-1.76492434453257e+000,2.77891364333724e-002	-1.99999972706762e+000,7.38826558518845e-004
2.18776162394954e+001	-1.76433232057366e+000,2.75965349702310e-002	-1.99999971420472e+000,7.56036034980830e-004
2.23872113856833e+001	-1.76374938865419e+000,2.73930835081574e-002	-1.99999970073560e+000,7.73646371297444e-004
2.29086765276776e+001	-1.76317594463134e+000,2.71792763375414e-002	-1.99999968663171e+000,7.91666904669314e-004
2.34422881531991e+001	-1.76261235142161e+000,2.69556217145276e-002	-1.99999967186312e+000,8.10107189786633e-004
2.39883291901948e+001	-1.76205893938029e+000,2.67226394140078e-002	-1.99999965639850e+000,8.28977003895012e-004
2.45470891568502e+001	-1.76151600561851e+000,2.64808582781120e-002	-1.99999964020507e+000,8.48286351979324e-004
2.51188643150957e+001	-1.76098381442044e+000,2.62308138423364e-002	-1.99999962324846e+000,8.68045472068292e-004
2.57039578276885e+001	-1.76046259746462e+000,2.59730460185859e-002	-1.99999960549271e+000,8.88264840662617e-004
2.63026799189537e+001	-1.75995255404355e+000,2.57080968567109e-002	-1.99999958690016e+000,9.08955178289536e-004
2.69153480392690e+001	-1.75945385193022e+000,2.54365084164197e-002	-1.99999956743136e+000,9.30127455186755e-004
2.75422870333815e+001	-1.75896662803330e+000,2.51588207371444e-002	-1.99999954704504e+000,9.51792897118755e-004
2.81838293126444e+001	-1.75849098915573e+000,2.48755699249876e-002	-1.99999952569793e+000,9.73962991328571e-004
2.88403150312659e+001	-1.75802701321050e+000,2.45872863743329e-002	-1.99999950334477e+000,9.96649492628191e-004
2.95120922666637e+001	-1.75757475017624e+000,2.42944931108084e-002	-1.99999947993814e+000,1.01986442963080e-003
3.01995172040200e+001	-1.75713422333328e+000,2.39977042749019e-002	-1.99999945542838e+000,1.04362011112816e-003
3.09029543251358e+001	-1.75670543059140e+000,2.36974237437889e-002	-1.99999942976352e+000,1.06792913261658e-003
3.16227766016837e+001	-1.75628834564837e+000,2.33941438859435e-002	-1.99999940288911e+000,1.09280438297477e-003
3.23593656929627e+001	-1.75588291961199e+000,2.30883444646621e-002	-1.99999937474815e+000,1.11825905129733e-003
3.31131121482590e+001	-1.75548908206298e+000,2.27804916627742e-002	-1.99999934528095e+000,1.14430663388732e-003
3.38844156139201e+001	-1.75510674294558e+000,2.24710372609404e-002	-1.99999931442500e+000,1.17096094141171e-003
3.46736850452530e+001	-1.75473579345844e+000,2.21604179200574e-002	-1.99999928211486e+000,1.19823610622348e-003
3.54813389233574e+001	-1.75437610794971e+000,2.18490546129022e-002	-1.99999924828199e+000,1.22614658985423e-003
3.63078054770100e+001	-1.75402754501360e+000,2.15373521552064e-002	-1.99999921285462e+000,1.25470719068128e-003
3.71535229097171e+001	-1.75368994898040e+000,2.12256988594407e-002	-1.99999917575762e+000,1.28393305177338e-003
3.80189396320559e+001	-1.75336315143331e+000,2.09144662955291e-002	-1.99999913691229e+000,1.31383966891907e-003
3.89045144994279e+001	-1.75304697223071e+000,2.06040091399054e-002	-1.99999909623624e+000,1.34444289884202e-003
3.98107170553495e+001	-1.75274122104839e+000,2.02946651292302e-002	-1.99999905364318e+000,1.37575896760776e-003
4.07380277804111e+001	-1.75244569850780e+000,1.99867550900212e-002	-1.99999900904278e+000,1.40780447922609e-003
4.16869383470333e+001	-1.75216019732441e+000,1.96805830470562e-002	-1.99999896234043e+000,1.44059642445388e-003
4.26579518801591e+001	-1.75188450362406e+000,1.93764364063283e-002	-1.99999891343707e+000,1.47415218980284e-003
4.36515832240164e+001	-1.75161839774932e+000,1.90745861908738e-002	-1.99999886222897e+000,1.50848956675711e-003
4.46683592150961e+001	-1.75136165551165e+000,1.87752873431269e-002	-1.99999880860750e+000,1.54362676120539e-003
4.57088189614873e+001	-1.75111404906145e+000,1.84787790693585e-002	-1.99999875245894e+000,1.57958240309285e-003
4.67735141287196e+001	-1.75087534766300e+000,1.81852852261847e-002	-1.99999869366418e+000,1.61637555629767e-003
4.78630092322636e+001	-1.75064531887883e+000,1.78950147529469e-002	-1.99999863209851e+000,1.65402572873767e-003
4.89778819368444e+001	-1.75042372891748e+000,1.76081621193568e-002	-1.99999856763134e+000,1.69255288271225e-003
5.01187233627270e+001	-1.75021034370801e+000,1.73249078140839e-002	-1.99999850012594e+000,1.73197744548507e-003
5.12861383991362e+001	-1.75000492938888e+000,1.70454188433023e-002	-1.99999842943911e+000,1.77232032011329e-003
5.24807460249770e+001	-1.74980725298522e+000,1.67698492497238e-002	-1.99999835542091e+000,1.81360289652885e-003
5.37031796370250e+001	-1.74961708292625e+000,1.64983406410783e-002	-1.99999827791436e+000,1.85584706287783e-003
5.49540873857622e+001	-1.74943418952792e+000,1.62310227265522e-002	-1.99999819675503e+000,1.89907521712381e-003
5.62341325190346e+001	-1.74925834564565e+000,1.59680138611240e-002	-1.99999811177080e+000,1.94331027892139e-003
5.75439937337154e+001	-1.74908932676207e+000,1.57094215816059e-002	-1.99999802278138e+000,1.98857570176624e-003
5.88843655355586e+001	-1.74892691160719e+000,1.54553431509774e-002	-1.99999792959804e+000,2.03489548542789e-003
