Freq.	V(vout1)	V(vout2)
1.00000000000000e+000	-1.81888207095802e+000,1.13867467830646e-003	-1.99999999940289e+000,3.45575191791704e-005
1.02329299228075e+000	-1.81888199772256e+000,1.16519771587537e-003	-1.99999999937475e+000,3.53624672061552e-005
1.04712854805090e+000	-1.81888192096489e+000,1.19233854690116e-003	-1.99999999934528e+000,3.61861648812835e-005
1.07151930523761e+000	-1.81888184065726e+000,1.22011156129000e-003	-1.99999999931442e+000,3.70290489399620e-005
1.09647819614318e+000	-1.81888175653693e+000,1.24853148379853e-003	-1.99999999928211e+000,3.78915662904721e-005
1.12201845430196e+000	-1.81888166847450e+000,1.27761338231441e-003	-1.99999999924828e+000,3.87741742509258e-005
1.14815362149688e+000	-1.81888157622812e+000,1.30737267551503e-003	-1.99999999921285e+000,3.96773407917424e-005
1.17489755493953e+000	-1.81888147967851e+000,1.33782514136408e-003	-1.99999999917576e+000,4.06015447837722e-005
1.20226443461741e+000	-1.81888137855447e+000,1.36898692508712e-003	-1.99999999913691e+000,4.15472762522003e-005
1.23026877081238e+000	-1.81888127262483e+000,1.40087454799588e-003	-1.99999999909624e+000,4.25150366363645e-005
1.25892541179417e+000	-1.81888116175126e+000,1.43350491633463e-003	-1.99999999905364e+000,4.35053390556249e-005
1.28824955169313e+000	-1.81888104562756e+000,1.46689532984173e-003	-1.99999999900904e+000,4.45187085814263e-005
1.31825673855641e+000	-1.81888092406257e+000,1.50106349135097e-003	-1.99999999896234e+000,4.55556825156989e-005
1.34896288259165e+000	-1.81888079676999e+000,1.53602751584495e-003	-1.99999999891344e+000,4.66168106757417e-005
1.38038426460288e+000	-1.81888066345784e+000,1.57180594019066e-003	-1.99999999886223e+000,4.77026556857437e-005
1.41253754462275e+000	-1.81888052384290e+000,1.60841773298889e-003	-1.99999999880861e+000,4.88137932750945e-005
1.44543977074593e+000	-1.81888037769878e+000,1.64588230471508e-003	-1.99999999875246e+000,4.99508125836433e-005
1.47910838816821e+000	-1.81888022463547e+000,1.68421951761486e-003	-1.99999999869366e+000,5.11143164740688e-005
1.51356124843621e+000	-1.81888006436009e+000,1.72344969668471e-003	-1.99999999863210e+000,5.23049218515252e-005
1.54881661891248e+000	-1.81887989650881e+000,1.76359364014322e-003	-1.99999999856763e+000,5.35232599907330e-005
1.58489319246111e+000	-1.81887972075468e+000,1.80467263064816e-003	-1.99999999850012e+000,5.47699768706893e-005
1.62181009735893e+000	-1.81887953678393e+000,1.84670844653580e-003	-1.99999999842944e+000,5.60457335171745e-005
1.65958690743756e+000	-1.81887934409221e+000,1.88972337294829e-003	-1.99999999835542e+000,5.73512063532367e-005
1.69824365246174e+000	-1.81887914232013e+000,1.93374021430181e-003	-1.99999999827791e+000,5.86870875578403e-005
1.73780082874937e+000	-1.81887893102648e+000,1.97878230591878e-003	-1.99999999819675e+000,6.00540854328680e-005
1.77827941003892e+000	-1.81887870978744e+000,2.02487352659103e-003	-1.99999999811177e+000,6.14529247786723e-005
1.81970085860998e+000	-1.81887847813989e+000,2.07203831110922e-003	-1.99999999802278e+000,6.28843472783736e-005
1.86208713666287e+000	-1.81887823556177e+000,2.12030166315535e-003	-1.99999999792960e+000,6.43491118911109e-005
1.90546071796325e+000	-1.81887798152288e+000,2.16968916865478e-003	-1.99999999783202e+000,6.58479952544514e-005
1.94984459975804e+000	-1.81887771556020e+000,2.22022700951236e-003	-1.99999999772985e+000,6.73817920961741e-005
1.99526231496888e+000	-1.81887743698610e+000,2.27194197678052e-003	-1.99999999762286e+000,6.89513156556451e-005
2.04173794466953e+000	-1.81887714535918e+000,2.32486148598181e-003	-1.99999999751083e+000,7.05573981150076e-005
2.08929613085404e+000	-1.81887683993947e+000,2.37901359029285e-003	-1.99999999739352e+000,7.22008910404156e-005
2.13796208950223e+000	-1.81887652021347e+000,2.43442699670882e-003	-1.99999999727068e+000,7.38826658335457e-005
2.18776162394955e+000	-1.81887618534820e+000,2.49113107983956e-003	-1.99999999714205e+000,7.56036141936256e-005
2.23872113856834e+000	-1.81887583471440e+000,2.54915589882129e-003	-1.99999999700736e+000,7.73646485902247e-005
2.29086765276777e+000	-1.81887546751429e+000,2.60853221224604e-003	-1.99999999686632e+000,7.91667027470572e-005
2.34422881531992e+000	-1.81887508305609e+000,2.66929149519644e-003	-1.99999999671863e+000,8.10107321370551e-005
2.39883291901949e+000	-1.81887468047401e+000,2.73146595511929e-003	-1.99999999656398e+000,8.28977144889718e-005
2.45470891568503e+000	-1.81887425890305e+000,2.79508854935550e-003	-1.99999999640205e+000,8.48286503057873e-005
2.51188643150958e+000	-1.81887381752342e+000,2.86019300273153e-003	-1.99999999623248e+000,8.68045633951872e-005
2.57039578276886e+000	-1.81887335527466e+000,2.92681382452570e-003	-1.99999999605493e+000,8.88265014123996e-005
2.63026799189538e+000	-1.81887287127128e+000,2.99498632800612e-003	-1.99999999586900e+000,9.08955364156752e-005
2.69153480392691e+000	-1.81887236444230e+000,3.06474664799315e-003	-1.99999999567431e+000,9.30127654347062e-005
2.75422870333816e+000	-1.81887183371868e+000,3.13613176055983e-003	-1.99999999547045e+000,9.51793110522866e-005
2.81838293126445e+000	-1.81887127804402e+000,3.20917950264507e-003	-1.99999999525698e+000,9.73963219995195e-005
2.88403150312660e+000	-1.81887069612705e+000,3.28392859120562e-003	-1.99999999503345e+000,9.96649737648890e-005
2.95120922666638e+000	-1.81887008676653e+000,3.36041864480167e-003	-1.99999999479938e+000,1.01986469217520e-004
3.01995172040201e+000	-1.81886944872579e+000,3.43869020413539e-003	-1.99999999455428e+000,1.04362039244956e-004
3.09029543251359e+000	-1.81886878062616e+000,3.51878475308317e-003	-1.99999999429763e+000,1.06792943405788e-004
3.16227766016837e+000	-1.81886808100255e+000,3.60074474080713e-003	-1.99999999402889e+000,1.09280470597494e-004
3.23593656929628e+000	-1.81886734844660e+000,3.68461360475090e-003	-1.99999999374748e+000,1.11825939739824e-004
3.31131121482591e+000	-1.81886658135587e+000,3.77043579262132e-003	-1.99999999345281e+000,1.14430700474112e-004
3.38844156139202e+000	-1.81886577813281e+000,3.85825678664739e-003	-1.99999999314425e+000,1.17096133878871e-004
3.46736850452531e+000	-1.81886493702829e+000,3.94812312697142e-003	-1.99999999282115e+000,1.19823653202060e-004
3.54813389233575e+000	-1.81886405630192e+000,4.04008243689628e-003	-1.99999999248282e+000,1.22614704610406e-004
3.63078054770101e+000	-1.81886313405951e+000,4.13418344734796e-003	-1.99999999212854e+000,1.25470767956177e-004
3.71535229097172e+000	-1.81886216834515e+000,4.23047602298774e-003	-1.99999999175757e+000,1.28393357561826e-004
3.80189396320560e+000	-1.81886115714928e+000,4.32901118858656e-003	-1.99999999136912e+000,1.31384023022895e-004
3.89045144994280e+000	-1.81886009824942e+000,4.42984115520402e-003	-1.99999999096236e+000,1.34444350029639e-004
3.98107170553496e+000	-1.81885898948925e+000,4.53301934904824e-003	-1.99999999053643e+000,1.37575961207771e-004
4.07380277804112e+000	-1.81885782842941e+000,4.63860043798916e-003	-1.99999999009042e+000,1.40780516978807e-004
4.16869383470335e+000	-1.81885661273201e+000,4.74664036226920e-003	-1.99999998962340e+000,1.44059716440435e-004
4.26579518801592e+000	-1.81885533966642e+000,4.85719636151410e-003	-1.99999998913436e+000,1.47415298267404e-004
4.36515832240165e+000	-1.81885400667300e+000,4.97032700778016e-003	-1.99999998862228e+000,1.50849041633388e-004
4.46683592150962e+000	-1.81885261083337e+000,5.08609223366793e-003	-1.99999998808607e+000,1.54362767154328e-004
4.57088189614874e+000	-1.81885114920450e+000,5.20455336564112e-003	-1.99999998752458e+000,1.57958337853744e-004
4.67735141287197e+000	-1.81884961873464e+000,5.32577315590050e-003	-1.99999998693663e+000,1.61637660150535e-004
4.78630092322637e+000	-1.81884801610581e+000,5.44981581450967e-003	-1.99999998632098e+000,1.65402684869785e-004
4.89778819368445e+000	-1.81884633796560e+000,5.57674704451003e-003	-1.99999998567630e+000,1.69255408277115e-004
5.01187233627271e+000	-1.81884458074403e+000,5.70663407543076e-003	-1.99999998500125e+000,1.73197873137131e-004
5.12861383991364e+000	-1.81884274071849e+000,5.83954569901592e-003	-1.99999998429438e+000,1.77232169796517e-004
5.24807460249771e+000	-1.81884081400368e+000,5.97555230533272e-003	-1.99999998355420e+000,1.81360437292369e-004
5.37031796370252e+000	-1.81883879646519e+000,6.11472591919386e-003	-1.99999998277913e+000,1.85584864486334e-004
5.49540873857623e+000	-1.81883668384933e+000,6.25714023882192e-003	-1.99999998196753e+000,1.89907691225175e-004
5.62341325190348e+000	-1.81883447171895e+000,6.40287067415015e-003	-1.99999998111769e+000,1.94331209528363e-004
5.75439937337156e+000	-1.81883215529107e+000,6.55199438525429e-003	-1.99999998022779e+000,1.98857764803335e-004
5.88843655355588e+000	-1.81882972975268e+000,6.70459032501590e-003	-1.99999997929596e+000,2.03489757089058e-004
6.02559586074356e+000	-1.81882718989331e+000,6.86073927792862e-003	-1.99999997832021e+000,2.08229642328556e-004
6.16595001861481e+000	-1.81882453035367e+000,7.02052390418260e-003	-1.99999997729847e+000,2.13079933671083e-004
6.30957344480192e+000	-1.81882174551216e+000,7.18402878214708e-003	-1.99999997622858e+000,2.18043202804626e-004
6.45654229034654e+000	-1.81881882941345e+000,7.35134045205387e-003	-1.99999997510827e+000,2.23122081319442e-004
6.60693448007594e+000	-1.81881577595096e+000,7.52254746269118e-003	-1.99999997393516e+000,2.28319262103360e-004
6.76082975391980e+000	-1.81881257855348e+000,7.69774041518197e-003	-1.99999997270676e+000,2.33637500769581e-004
6.91830970918935e+000	-1.81880923054584e+000,7.87701201323147e-003	-1.99999997142047e+000,2.39079617117738e-004
7.07945784384136e+000	-1.81880572474710e+000,8.06045710818981e-003	-1.99999997007356e+000,2.44648496628987e-004
7.24435960074988e+000	-1.81880205371786e+000,8.24817275055527e-003	-1.99999996866317e+000,2.50347091995921e-004
7.41310241300916e+000	-1.81879820981500e+000,8.44025824113058e-003	-1.99999996718631e+000,2.56178424688121e-004
7.58577575029182e+000	-1.81879418470850e+000,8.63681517835128e-003	-1.99999996563985e+000,2.62145586554179e-004
7.76247116628690e+000	-1.81878996998206e+000,8.83794751657545e-003	-1.99999996402050e+000,2.68251741461023e-004
7.94328234724279e+000	-1.81878555663362e+000,9.04376161552998e-003	-1.99999996232484e+000,2.74500126971444e-004
8.12830516164097e+000	-1.81878093542349e+000,9.25436629884781e-003	-1.99999996054926e+000,2.80894056060681e-004
8.31763771102669e+000	-1.81877609639085e+000,9.46987290575909e-003	-1.99999995869001e+000,2.87436918873003e-004
8.51138038202374e+000	-1.81877102939313e+000,9.69039535414388e-003	-1.99999995674313e+000,2.94132184519196e-004
8.70963589956078e+000	-1.81876572367065e+000,9.91605019515718e-003	-1.99999995470449e+000,3.00983402915925e-004
8.91250938133743e+000	-1.81876016798312e+000,1.01469566748354e-002	-1.99999995256978e+000,3.07994206667941e-004
9.12010839355907e+000	-1.81875435052365e+000,1.03832367947504e-002	-1.99999995033447e+000,3.15168312994124e-004
9.33254300796988e+000	-1.81874825895689e+000,1.06250153753415e-002	-1.99999994799380e+000,3.22509525698391e-004
9.54992586021433e+000	-1.81874188042730e+000,1.08724201203393e-002	-1.99999994554283e+000,3.30021737186516e-004
9.77237220955808e+000	-1.81873520145635e+000,1.11255816813141e-002	-1.99999994297634e+000,3.37708930529919e-004
9.99999999999997e+000	-1.81872820774537e+000,1.13846337223332e-002	-1.99999994028890e+000,3.45575181577538e-004
1.02329299228075e+001	-1.81872088456580e+000,1.16497129931991e-002	-1.99999993747480e+000,3.53624661116877e-004
1.04712854805090e+001	-1.81871321640534e+000,1.19209593952401e-002	-1.99999993452808e+000,3.61861637085404e-004
1.07151930523760e+001	-1.81870518701515e+000,1.21985160533346e-002	-1.99999993144248e+000,3.70290476833451e-004
1.09647819614318e+001	-1.81869677938067e+000,1.24825293885591e-002	-1.99999992821146e+000,3.78915649439828e-004
1.12201845430196e+001	-1.81868797568236e+000,1.27731491922221e-002	-1.99999992482817e+000,3.87741728081366e-004
1.14815362149688e+001	-1.81867875725977e+000,1.30705287015233e-002	-1.99999992128543e+000,3.96773392457659e-004
1.17489755493953e+001	-1.81866910465657e+000,1.33748246779449e-002	-1.99999991757573e+000,4.06015431272285e-004
1.20226443461741e+001	-1.81865899738546e+000,1.36861974832716e-002	-1.99999991369120e+000,4.15472744771818e-004
1.23026877081238e+001	-1.81864841401935e+000,1.40048111618064e-002	-1.99999990962359e+000,4.25150347343979e-004
1.25892541179416e+001	-1.81863733208349e+000,1.43308335214138e-002	-1.99999990536428e+000,4.35053370176309e-004
1.28824955169313e+001	-1.81862572831549e+000,1.46644362219469e-002	-1.99999990090423e+000,4.45187063976765e-004
1.31825673855640e+001	-1.81861357797898e+000,1.50057948506475e-002	-1.99999989623399e+000,4.55556801757688e-004
1.34896288259165e+001	-1.81860085538355e+000,1.53550890179371e-002	-1.99999989134365e+000,4.66168081684614e-004
1.38038426460288e+001	-1.81858753364248e+000,1.57125024432400e-002	-1.99999988622284e+000,4.77026529991445e-004
1.41253754462275e+001	-1.81857358452464e+000,1.60782230437641e-002	-1.99999988086069e+000,4.88137903963516e-004
1.44543977074592e+001	-1.81855897851267e+000,1.64524430285321e-002	-1.99999987524582e+000,4.99508094990147e-004
1.47910838816820e+001	-1.81854368467216e+000,1.68353589910215e-002	-1.99999986936634e+000,5.11143131688298e-004
1.51356124843620e+001	-1.81852767067958e+000,1.72271720064042e-002	-1.99999986320977e+000,5.23049183098978e-004
1.54881661891248e+001	-1.81851090263571e+000,1.76280877267288e-002	-1.99999985676304e+000,5.35232561958109e-004
1.58489319246111e+001	-1.81849334510733e+000,1.80383164821116e-002	-1.99999985001249e+000,5.47699728043570e-004
1.62181009735892e+001	-1.81847496085010e+000,1.84580733776581e-002	-1.99999984294380e+000,5.60457291600210e-004
1.65958690743755e+001	-1.81845571107295e+000,1.88875784027855e-002	-1.99999983554197e+000,5.73512016844627e-004
1.69824365246174e+001	-1.81843555505164e+000,1.93270565296914e-002	-1.99999982779130e+000,5.86870825551587e-004
1.73780082874937e+001	-1.81841445015585e+000,1.97767378216981e-002	-1.99999981967536e+000,6.00540800723982e-004
1.77827941003892e+001	-1.81839235181934e+000,2.02368575425156e-002	-1.99999981117692e+000,6.14529190348254e-004
1.81970085860998e+001	-1.81836921322459e+000,2.07076562611193e-002	-1.99999980227796e+000,6.28843411237309e-004
1.86208713666286e+001	-1.81834498554921e+000,2.11893799707161e-002	-1.99999979295961e+000,6.43491052962924e-004
1.90546071796324e+001	-1.81831961763224e+000,2.16822801969608e-002	-1.99999978320210e+000,6.58479881879761e-004
1.94984459975804e+001	-1.81829305583369e+000,2.21866141119178e-002	-1.99999977298473e+000,6.73817845243095e-004
1.99526231496887e+001	-1.81826524400920e+000,2.27026446525561e-002	-1.99999976228583e+000,6.89513075422461e-004
2.04173794466952e+001	-1.81823612348800e+000,2.32306406413850e-002	-1.99999975108271e+000,7.05573894213440e-004
2.08929613085403e+001	-1.81820563278271e+000,2.37708769022521e-002	-1.99999973935160e+000,7.22008817249873e-004
2.13796208950222e+001	-1.81817370746525e+000,2.43236343816627e-002	-1.99999972706762e+000,7.38826558518845e-004
2.18776162394954e+001	-1.81814028027246e+000,2.48892002780114e-002	-1.99999971420472e+000,7.56036034980830e-004
2.23872113856833e+001	-1.81810528054934e+000,2.54678681549823e-002	-1.99999970073560e+000,7.73646371297444e-004
2.29086765276776e+001	-1.81806863459126e+000,2.60599380804480e-002	-1.99999968663171e+000,7.91666904669314e-004
2.34422881531991e+001	-1.81803026503701e+000,2.66657167412373e-002	-1.99999967186312e+000,8.10107189786633e-004
2.39883291901948e+001	-1.81799009097129e+000,2.72855175786292e-002	-1.99999965639850e+000,8.28977003895012e-004
2.45470891568502e+001	-1.81794802778467e+000,2.79196609189156e-002	-1.99999964020507e+000,8.48286351979324e-004
2.51188643150957e+001	-1.81790398682139e+000,2.85684740987527e-002	-1.99999962324846e+000,8.68045472068292e-004
2.57039578276885e+001	-1.81785787537509e+000,2.92322916020788e-002	-1.99999960549271e+000,8.88264840662617e-004
2.63026799189537e+001	-1.81780959623736e+000,2.99114551842842e-002	-1.99999958690016e+000,9.08955178289536e-004
2.69153480392690e+001	-1.81775904786632e+000,3.06063140168466e-002	-1.99999956743136e+000,9.30127455186755e-004
2.75422870333815e+001	-1.81770612391746e+000,3.13172248127569e-002	-1.99999954704504e+000,9.51792897118755e-004
2.81838293126444e+001	-1.81765071295362e+000,3.20445519576669e-002	-1.99999952569793e+000,9.73962991328571e-004
2.88403150312659e+001	-1.81759269861599e+000,3.27886676576386e-002	-1.99999950334477e+000,9.96649492628191e-004
2.95120922666637e+001	-1.81753195885779e+000,3.35499520549949e-002	-1.99999947993814e+000,1.01986442963080e-003
3.01995172040200e+001	-1.81746836620370e+000,3.43287933799923e-002	-1.99999945542838e+000,1.04362011112816e-003
3.09029543251358e+001	-1.81740178700059e+000,3.51255880664513e-002	-1.99999942976352e+000,1.06792913261658e-003
3.16227766016837e+001	-1.81733208161146e+000,3.59407409014760e-002	-1.99999940288911e+000,1.09280438297477e-003
3.23593656929627e+001	-1.81725910372194e+000,3.67746651415257e-002	-1.99999937474815e+000,1.11825905129733e-003
3.31131121482590e+001	-1.81718270035953e+000,3.76277826546468e-002	-1.99999934528095e+000,1.14430663388732e-003
3.38844156139201e+001	-1.81710271146232e+000,3.85005240444248e-002	-1.99999931442500e+000,1.17096094141171e-003
3.46736850452530e+001	-1.81701896944484e+000,3.93933287717019e-002	-1.99999928211486e+000,1.19823610622348e-003
3.54813389233574e+001	-1.81693129913256e+000,4.03066452899550e-002	-1.99999924828199e+000,1.22614658985423e-003
3.63078054770100e+001	-1.81683951704191e+000,4.12409311507201e-002	-1.99999921285462e+000,1.25470719068128e-003
3.71535229097171e+001	-1.81674343132286e+000,4.21966531345910e-002	-1.99999917575762e+000,1.28393305177338e-003
3.80189396320559e+001	-1.81664284135000e+000,4.31742873645145e-002	-1.99999913691229e+000,1.31383966891907e-003
3.89045144994279e+001	-1.81653753701388e+000,4.41743194009509e-002	-1.99999909623624e+000,1.34444289884202e-003
3.98107170553495e+001	-1.81642729880698e+000,4.51972443700403e-002	-1.99999905364318e+000,1.37575896760776e-003
4.07380277804111e+001	-1.81631189692532e+000,4.62435670408229e-002	-1.99999900904278e+000,1.40780447922609e-003
4.16869383470333e+001	-1.81619109106709e+000,4.73138019299840e-002	-1.99999896234043e+000,1.44059642445388e-003
4.26579518801591e+001	-1.81606462987563e+000,4.84084733835583e-002	-1.99999891343707e+000,1.47415218980284e-003
4.36515832240164e+001	-1.81593225048287e+000,4.95281156568563e-002	-1.99999886222897e+000,1.50848956675711e-003
4.46683592150961e+001	-1.81579367792447e+000,5.06732729800043e-002	-1.99999880860750e+000,1.54362676120539e-003
4.57088189614873e+001	-1.81564862480598e+000,5.18444996289470e-002	-1.99999875245894e+000,1.57958240309285e-003
4.67735141287196e+001	-1.81549679044962e+000,5.30423599586938e-002	-1.99999869366418e+000,1.61637555629767e-003
4.78630092322636e+001	-1.81533786050637e+000,5.42674284516613e-002	-1.99999863209851e+000,1.65402572873767e-003
4.89778819368444e+001	-1.81517150644715e+000,5.55202897490434e-002	-1.99999856763134e+000,1.69255288271225e-003
5.01187233627270e+001	-1.81499738460310e+000,5.68015386427468e-002	-1.99999850012594e+000,1.73197744548507e-003
5.12861383991362e+001	-1.81481513583451e+000,5.81117800909199e-002	-1.99999842943911e+000,1.77232032011329e-003
5.24807460249770e+001	-1.81462438473997e+000,5.94516291916206e-002	-1.99999835542091e+000,1.81360289652885e-003
5.37031796370250e+001	-1.81442473891460e+000,6.08217111427274e-002	-1.99999827791436e+000,1.85584706287783e-003
5.49540873857622e+001	-1.81421578825350e+000,6.22226611869985e-002	-1.99999819675503e+000,1.89907521712381e-003
5.62341325190346e+001	-1.81399710420490e+000,6.36551245348358e-002	-1.99999811177080e+000,1.94331027892139e-003
5.75439937337154e+001	-1.81376823895207e+000,6.51197562613386e-002	-1.99999802278138e+000,1.98857570176624e-003
5.88843655355586e+001	-1.81352872453379e+000,6.66172211760424e-002	-1.99999792959804e+000,2.03489548542789e-003
