Freq.	V(vout1)	V(vout2)
1.00000000000000e+000	-1.92556554886291e+000,1.14922234432840e-003	-1.99999999940289e+000,3.45575191791704e-005
1.02329299228075e+000	-1.92556547637392e+000,1.17599107167273e-003	-1.99999999937475e+000,3.53624672061552e-005
1.04712854805090e+000	-1.92556540043587e+000,1.20338331559461e-003	-1.99999999934528e+000,3.61861648812835e-005
1.07151930523761e+000	-1.92556532093994e+000,1.23141359921440e-003	-1.99999999931442e+000,3.70290489399620e-005
1.09647819614318e+000	-1.92556523774559e+000,1.26009678387601e-003	-1.99999999928211e+000,3.78915662904721e-005
1.12201845430196e+000	-1.92556515057663e+000,1.28944807688270e-003	-1.99999999924828e+000,3.87741742509258e-005
1.14815362149688e+000	-1.92556505927634e+000,1.31948303988362e-003	-1.99999999921285e+000,3.96773407917424e-005
1.17489755493953e+000	-1.92556496378009e+000,1.35021759710291e-003	-1.99999999917576e+000,4.06015447837722e-005
1.20226443461741e+000	-1.92556486368369e+000,1.38166804318233e-003	-1.99999999913691e+000,4.15472762522003e-005
1.23026877081238e+000	-1.92556475885510e+000,1.41385105265277e-003	-1.99999999909624e+000,4.25150366363645e-005
1.25892541179417e+000	-1.92556464917781e+000,1.44678368843549e-003	-1.99999999905364e+000,4.35053390556249e-005
1.28824955169313e+000	-1.92556453426658e+000,1.48048341045685e-003	-1.99999999900904e+000,4.45187085814263e-005
1.31825673855641e+000	-1.92556441398442e+000,1.51496808566140e-003	-1.99999999896234e+000,4.55556825156989e-005
1.34896288259165e+000	-1.92556428797739e+000,1.55025599678418e-003	-1.99999999891344e+000,4.66168106757417e-005
1.38038426460288e+000	-1.92556415605707e+000,1.58636585262579e-003	-1.99999999886223e+000,4.77026556857437e-005
1.41253754462275e+000	-1.92556401792195e+000,1.62331679753369e-003	-1.99999999880861e+000,4.88137932750945e-005
1.44543977074593e+000	-1.92556387328430e+000,1.66112842174434e-003	-1.99999999875246e+000,4.99508125836433e-005
1.47910838816821e+000	-1.92556372186510e+000,1.69982077175987e-003	-1.99999999869366e+000,5.11143164740688e-005
1.51356124843621e+000	-1.92556356324598e+000,1.73941436070927e-003	-1.99999999863210e+000,5.23049218515252e-005
1.54881661891248e+000	-1.92556339719558e+000,1.77993017978885e-003	-1.99999999856763e+000,5.35232599907330e-005
1.58489319246111e+000	-1.92556322326654e+000,1.82138970867050e-003	-1.99999999850012e+000,5.47699768706893e-005
1.62181009735893e+000	-1.92556304114308e+000,1.86381492750571e-003	-1.99999999842944e+000,5.60457335171745e-005
1.65958690743756e+000	-1.92556285047089e+000,1.90722832826811e-003	-1.99999999835542e+000,5.73512063532367e-005
1.69824365246174e+000	-1.92556265079973e+000,1.95165292654941e-003	-1.99999999827791e+000,5.86870875578403e-005
1.73780082874937e+000	-1.92556244171077e+000,1.99711227399525e-003	-1.99999999819675e+000,6.00540854328680e-005
1.77827941003892e+000	-1.92556222279239e+000,2.04363047074145e-003	-1.99999999811177e+000,6.14529247786723e-005
1.81970085860998e+000	-1.92556199353520e+000,2.09123217796048e-003	-1.99999999802278e+000,6.28843472783736e-005
1.86208713666287e+000	-1.92556175350931e+000,2.13994263129485e-003	-1.99999999792960e+000,6.43491118911109e-005
1.90546071796325e+000	-1.92556150213544e+000,2.18978765373279e-003	-1.99999999783202e+000,6.58479952544514e-005
1.94984459975804e+000	-1.92556123893951e+000,2.24079366983844e-003	-1.99999999772985e+000,6.73817920961741e-005
1.99526231496888e+000	-1.92556096331847e+000,2.29298771922770e-003	-1.99999999762286e+000,6.89513156556451e-005
2.04173794466953e+000	-1.92556067472076e+000,2.34639747129458e-003	-1.99999999751083e+000,7.05573981150076e-005
2.08929613085404e+000	-1.92556037251633e+000,2.40105123956303e-003	-1.99999999739352e+000,7.22008910404156e-005
2.13796208950223e+000	-1.92556005607334e+000,2.45697799685822e-003	-1.99999999727068e+000,7.38826658335457e-005
2.18776162394955e+000	-1.92555972470273e+000,2.51420739051080e-003	-1.99999999714205e+000,7.56036141936256e-005
2.23872113856834e+000	-1.92555937773609e+000,2.57276975825060e-003	-1.99999999700736e+000,7.73646485902247e-005
2.29086765276777e+000	-1.92555901439611e+000,2.63269614393198e-003	-1.99999999686632e+000,7.91667027470572e-005
2.34422881531992e+000	-1.92555863397400e+000,2.69401831443474e-003	-1.99999999671863e+000,8.10107321370551e-005
2.39883291901949e+000	-1.92555823556865e+000,2.75676877577163e-003	-1.99999999656398e+000,8.28977144889718e-005
2.45470891568503e+000	-1.92555781837319e+000,2.82098079107291e-003	-1.99999999640205e+000,8.48286503057873e-005
2.51188643150958e+000	-1.92555738161547e+000,2.88668839805646e-003	-1.99999999623248e+000,8.68045633951872e-005
2.57039578276886e+000	-1.92555692417905e+000,2.95392642591366e-003	-1.99999999605493e+000,8.88265014123996e-005
2.63026799189538e+000	-1.92555644525528e+000,3.02273051566094e-003	-1.99999999586900e+000,9.08955364156752e-005
2.69153480392691e+000	-1.92555594374202e+000,3.09313713720640e-003	-1.99999999567431e+000,9.30127654347062e-005
2.75422870333816e+000	-1.92555541856228e+000,3.16518360959161e-003	-1.99999999547045e+000,9.51793110522866e-005
2.81838293126445e+000	-1.92555486864194e+000,3.23890812068335e-003	-1.99999999525698e+000,9.73963219995195e-005
2.88403150312660e+000	-1.92555429277889e+000,3.31434974694513e-003	-1.99999999503345e+000,9.96649737648890e-005
2.95120922666638e+000	-1.92555368984589e+000,3.39154847478027e-003	-1.99999999479938e+000,1.01986469217520e-004
3.01995172040201e+000	-1.92555305844899e+000,3.47054522050871e-003	-1.99999999455428e+000,1.04362039244956e-004
3.09029543251359e+000	-1.92555239729304e+000,3.55138185324834e-003	-1.99999999429763e+000,1.06792943405788e-004
3.16227766016837e+000	-1.92555170499616e+000,3.63410121642057e-003	-1.99999999402889e+000,1.09280470597494e-004
3.23593656929628e+000	-1.92555098007994e+000,3.71874715034875e-003	-1.99999999374748e+000,1.11825939739824e-004
3.31131121482591e+000	-1.92555022097661e+000,3.80536451544057e-003	-1.99999999345281e+000,1.14430700474112e-004
3.38844156139202e+000	-1.92554942612383e+000,3.89399921626270e-003	-1.99999999314425e+000,1.17096133878871e-004
3.46736850452531e+000	-1.92554859383082e+000,3.98469822527929e-003	-1.99999999282115e+000,1.19823653202060e-004
3.54813389233575e+000	-1.92554772230188e+000,4.07750960773834e-003	-1.99999999248282e+000,1.22614704610406e-004
3.63078054770101e+000	-1.92554680968823e+000,4.17248254726507e-003	-1.99999999212854e+000,1.25470767956177e-004
3.71535229097172e+000	-1.92554585405465e+000,4.26966737170039e-003	-1.99999999175757e+000,1.28393357561826e-004
3.80189396320560e+000	-1.92554485337293e+000,4.36911557964107e-003	-1.99999999136912e+000,1.31384023022895e-004
3.89045144994280e+000	-1.92554380557386e+000,4.47087986785853e-003	-1.99999999096236e+000,1.34444350029639e-004
3.98107170553496e+000	-1.92554270841413e+000,4.57501415850994e-003	-1.99999999053643e+000,1.37575961207771e-004
4.07380277804112e+000	-1.92554155946667e+000,4.68157362750091e-003	-1.99999999009042e+000,1.40780516978807e-004
4.16869383470335e+000	-1.92554035645522e+000,4.79061473519127e-003	-1.99999998962340e+000,1.44059716440435e-004
4.26579518801592e+000	-1.92553909670604e+000,4.90219525355088e-003	-1.99999998913436e+000,1.47415298267404e-004
4.36515832240165e+000	-1.92553777761015e+000,5.01637429883856e-003	-1.99999998862228e+000,1.50849041633388e-004
4.46683592150962e+000	-1.92553639632623e+000,5.13321236129972e-003	-1.99999998808607e+000,1.54362767154328e-004
4.57088189614874e+000	-1.92553494996365e+000,5.25277133796199e-003	-1.99999998752458e+000,1.57958337853744e-004
4.67735141287197e+000	-1.92553343546963e+000,5.37511456466613e-003	-1.99999998693663e+000,1.61637660150535e-004
4.78630092322637e+000	-1.92553184956962e+000,5.50030684906605e-003	-1.99999998632098e+000,1.65402684869785e-004
4.89778819368445e+000	-1.92553018894423e+000,5.62841450571639e-003	-1.99999998567630e+000,1.69255408277115e-004
5.01187233627271e+000	-1.92552845009241e+000,5.75950539022882e-003	-1.99999998500125e+000,1.73197873137131e-004
5.12861383991364e+000	-1.92552662924517e+000,5.89364893442911e-003	-1.99999998429438e+000,1.77232169796517e-004
5.24807460249771e+000	-1.92552472264060e+000,6.03091618450122e-003	-1.99999998355420e+000,1.81360437292369e-004
5.37031796370252e+000	-1.92552272616088e+000,6.17137983615503e-003	-1.99999998277913e+000,1.85584864486334e-004
5.49540873857623e+000	-1.92552063560206e+000,6.31511427444915e-003	-1.99999998196753e+000,1.89907691225175e-004
5.62341325190348e+000	-1.92551844653482e+000,6.46219561200869e-003	-1.99999998111769e+000,1.94331209528363e-004
5.75439937337156e+000	-1.92551615432647e+000,6.61270172911013e-003	-1.99999998022779e+000,1.98857764803335e-004
5.88843655355588e+000	-1.92551375407548e+000,6.76671231409550e-003	-1.99999997929596e+000,2.03489757089058e-004
6.02559586074356e+000	-1.92551124073494e+000,6.92430890600180e-003	-1.99999997832021e+000,2.08229642328556e-004
6.16595001861481e+000	-1.92550860893743e+000,7.08557493609567e-003	-1.99999997729847e+000,2.13079933671083e-004
6.30957344480192e+000	-1.92550585317672e+000,7.25059577286694e-003	-1.99999997622858e+000,2.18043202804626e-004
6.45654229034654e+000	-1.92550296753062e+000,7.41945876470988e-003	-1.99999997510827e+000,2.23122081319442e-004
6.60693448007594e+000	-1.92549994588351e+000,7.59225328723410e-003	-1.99999997393516e+000,2.28319262103360e-004
6.76082975391980e+000	-1.92549678190873e+000,7.76907078993476e-003	-1.99999997270676e+000,2.33637500769581e-004
6.91830970918935e+000	-1.92549346883361e+000,7.95000484213370e-003	-1.99999997142047e+000,2.39079617117738e-004
7.07945784384136e+000	-1.92548999956753e+000,8.13515118278551e-003	-1.99999997007356e+000,2.44648496628987e-004
7.24435960074988e+000	-1.92548636690321e+000,8.32460777215764e-003	-1.99999996866317e+000,2.50347091995921e-004
7.41310241300916e+000	-1.92548256305663e+000,8.51847483909548e-003	-1.99999996718631e+000,2.56178424688121e-004
7.58577575029182e+000	-1.92547857999238e+000,8.71685493593543e-003	-1.99999996563985e+000,2.62145586554179e-004
7.76247116628690e+000	-1.92547440924658e+000,8.91985299038614e-003	-1.99999996402050e+000,2.68251741461023e-004
7.94328234724279e+000	-1.92547004196385e+000,9.12757636040549e-003	-1.99999996232484e+000,2.74500126971444e-004
8.12830516164097e+000	-1.92546546892767e+000,9.34013489029346e-003	-1.99999996054926e+000,2.80894056060681e-004
8.31763771102669e+000	-1.92546068039044e+000,9.55764096611427e-003	-1.99999995869001e+000,2.87436918873003e-004
8.51138038202374e+000	-1.92545566622832e+000,9.78020957544194e-003	-1.99999995674313e+000,2.94132184519196e-004
8.70963589956078e+000	-1.92545041582350e+000,1.00079583658188e-002	-1.99999995470449e+000,3.00983402915925e-004
8.91250938133743e+000	-1.92544491811420e+000,1.02410077061570e-002	-1.99999995256978e+000,3.07994206667941e-004
9.12010839355907e+000	-1.92543916131540e+000,1.04794807460263e-002	-1.99999995033447e+000,3.15168312994124e-004
9.33254300796988e+000	-1.92543313330589e+000,1.07235034832663e-002	-1.99999994799380e+000,3.22509525698391e-004
9.54992586021433e+000	-1.92542682134877e+000,1.09732048260727e-002	-1.99999994554283e+000,3.30021737186516e-004
9.77237220955808e+000	-1.92542021193052e+000,1.12287166574812e-002	-1.99999994297634e+000,3.37708930529919e-004
9.99999999999997e+000	-1.92541329117550e+000,1.14901739078580e-002	-1.99999994028890e+000,3.45575181577538e-004
1.02329299228075e+001	-1.92540604440185e+000,1.17577146191829e-002	-1.99999993747480e+000,3.53624661116877e-004
1.04712854805090e+001	-1.92539845616934e+000,1.20314800162238e-002	-1.99999993452808e+000,3.61861637085404e-004
1.07151930523760e+001	-1.92539051050614e+000,1.23116145816074e-002	-1.99999993144248e+000,3.70290476833451e-004
1.09647819614318e+001	-1.92538219048668e+000,1.25982661244655e-002	-1.99999992821146e+000,3.78915649439828e-004
1.12201845430196e+001	-1.92537347858432e+000,1.28915858602272e-002	-1.99999992482817e+000,3.87741728081366e-004
1.14815362149688e+001	-1.92536435627098e+000,1.31917284824787e-002	-1.99999992128543e+000,3.96773392457659e-004
1.17489755493953e+001	-1.92535480429716e+000,1.34988522452000e-002	-1.99999991757573e+000,4.06015431272285e-004
1.20226443461741e+001	-1.92534480230237e+000,1.38131190377322e-002	-1.99999991369120e+000,4.15472744771818e-004
1.23026877081238e+001	-1.92533432919643e+000,1.41346944719186e-002	-1.99999990962359e+000,4.25150347343979e-004
1.25892541179416e+001	-1.92532336280468e+000,1.44637479608199e-002	-1.99999990536428e+000,4.35053370176309e-004
1.28824955169313e+001	-1.92531187992060e+000,1.48004528047127e-002	-1.99999990090423e+000,4.45187063976765e-004
1.31825673855640e+001	-1.92529985613162e+000,1.51449862754804e-002	-1.99999989623399e+000,4.55556801757688e-004
1.34896288259165e+001	-1.92528726605069e+000,1.54975297089458e-002	-1.99999989134365e+000,4.66168081684614e-004
1.38038426460288e+001	-1.92527408308496e+000,1.58582685920371e-002	-1.99999988622284e+000,4.77026529991445e-004
1.41253754462275e+001	-1.92526027922455e+000,1.62273926516938e-002	-1.99999988086069e+000,4.88137903963516e-004
1.44543977074592e+001	-1.92524582524315e+000,1.66050959522487e-002	-1.99999987524582e+000,4.99508094990147e-004
1.47910838816820e+001	-1.92523069065803e+000,1.69915769910282e-002	-1.99999986936634e+000,5.11143131688298e-004
1.51356124843620e+001	-1.92521484334298e+000,1.73870387896469e-002	-1.99999986320977e+000,5.23049183098978e-004
1.54881661891248e+001	-1.92519824986102e+000,1.77916889995488e-002	-1.99999985676304e+000,5.35232561958109e-004
1.58489319246111e+001	-1.92518087499312e+000,1.82057399953465e-002	-1.99999985001249e+000,5.47699728043570e-004
1.62181009735892e+001	-1.92516268201707e+000,1.86294089834036e-002	-1.99999984294380e+000,5.60457291600210e-004
1.65958690743755e+001	-1.92514363253664e+000,1.90629181043970e-002	-1.99999983554197e+000,5.73512016844627e-004
1.69824365246174e+001	-1.92512368613955e+000,1.95064945341125e-002	-1.99999982779130e+000,5.86870825551587e-004
1.73780082874937e+001	-1.92510280072709e+000,1.99603705992099e-002	-1.99999981967536e+000,6.00540800723982e-004
1.77827941003892e+001	-1.92508093211847e+000,2.04247838808089e-002	-1.99999981117692e+000,6.14529190348254e-004
1.81970085860998e+001	-1.92505803406215e+000,2.08999773278649e-002	-1.99999980227796e+000,6.28843411237309e-004
1.86208713666286e+001	-1.92503405821741e+000,2.13861993720859e-002	-1.99999979295961e+000,6.43491052962924e-004
1.90546071796324e+001	-1.92500895384739e+000,2.18837040384927e-002	-1.99999978320210e+000,6.58479881879761e-004
1.94984459975804e+001	-1.92498266792439e+000,2.23927510667232e-002	-1.99999977298473e+000,6.73817845243095e-004
1.99526231496887e+001	-1.92495514496494e+000,2.29136060284995e-002	-1.99999976228583e+000,6.89513075422461e-004
2.04173794466952e+001	-1.92492632678911e+000,2.34465404449532e-002	-1.99999975108271e+000,7.05573894213440e-004
2.08929613085403e+001	-1.92489615255284e+000,2.39918319121009e-002	-1.99999973935160e+000,7.22008817249873e-004
2.13796208950222e+001	-1.92486455857397e+000,2.45497642234184e-002	-1.99999972706762e+000,7.38826558518845e-004
2.18776162394954e+001	-1.92483147812587e+000,2.51206274931835e-002	-1.99999971420472e+000,7.56036034980830e-004
2.23872113856833e+001	-1.92479684142086e+000,2.57047182862992e-002	-1.99999970073560e+000,7.73646371297444e-004
2.29086765276776e+001	-1.92476057532302e+000,2.63023397428968e-002	-1.99999968663171e+000,7.91666904669314e-004
2.34422881531991e+001	-1.92472260339823e+000,2.69138017133758e-002	-1.99999967186312e+000,8.10107189786633e-004
2.39883291901948e+001	-1.92468284555117e+000,2.75394208840552e-002	-1.99999965639850e+000,8.28977003895012e-004
2.45470891568502e+001	-1.92464121802120e+000,2.81795209139238e-002	-1.99999964020507e+000,8.48286351979324e-004
2.51188643150957e+001	-1.92459763297453e+000,2.88344325614561e-002	-1.99999962324846e+000,8.68045472068292e-004
2.57039578276885e+001	-1.92455199863508e+000,2.95044938281345e-002	-1.99999960549271e+000,8.88264840662617e-004
2.63026799189537e+001	-1.92450421884385e+000,3.01900500867091e-002	-1.99999958690016e+000,9.08955178289536e-004
2.69153480392690e+001	-1.92445419308774e+000,3.08914542244269e-002	-1.99999956743136e+000,9.30127455186755e-004
2.75422870333815e+001	-1.92440181602151e+000,3.16090667717177e-002	-1.99999954704504e+000,9.51792897118755e-004
2.81838293126444e+001	-1.92434697742454e+000,3.23432560449922e-002	-1.99999952569793e+000,9.73962991328571e-004
2.88403150312659e+001	-1.92428956193538e+000,3.30943982833036e-002	-1.99999950334477e+000,9.96649492628191e-004
2.95120922666637e+001	-1.92422944888657e+000,3.38628777888415e-002	-1.99999947993814e+000,1.01986442963080e-003
3.01995172040200e+001	-1.92416651201688e+000,3.46490870637057e-002	-1.99999945542838e+000,1.04362011112816e-003
3.09029543251358e+001	-1.92410061893027e+000,3.54534269373739e-002	-1.99999942976352e+000,1.06792913261658e-003
3.16227766016837e+001	-1.92403163142125e+000,3.62763067249758e-002	-1.99999940288911e+000,1.09280438297477e-003
3.23593656929627e+001	-1.92395940463341e+000,3.71181443436499e-002	-1.99999937474815e+000,1.11825905129733e-003
3.31131121482590e+001	-1.92388378720526e+000,3.79793664640012e-002	-1.99999934528095e+000,1.14430663388732e-003
3.38844156139201e+001	-1.92380462039942e+000,3.88604086223027e-002	-1.99999931442500e+000,1.17096094141171e-003
3.46736850452530e+001	-1.92372173843256e+000,3.97617153775470e-002	-1.99999928211486e+000,1.19823610622348e-003
3.54813389233574e+001	-1.92363496783703e+000,4.06837404299642e-002	-1.99999924828199e+000,1.22614658985423e-003
3.63078054770100e+001	-1.92354412683045e+000,4.16269467362713e-002	-1.99999921285462e+000,1.25470719068128e-003
3.71535229097171e+001	-1.92344902551964e+000,4.25918066574786e-002	-1.99999917575762e+000,1.28393305177338e-003
3.80189396320559e+001	-1.92334946512239e+000,4.35788020632095e-002	-1.99999913691229e+000,1.31383966891907e-003
3.89045144994279e+001	-1.92324523764444e+000,4.45884244512830e-002	-1.99999909623624e+000,1.34444289884202e-003
3.98107170553495e+001	-1.92313612558040e+000,4.56211750650704e-002	-1.99999905364318e+000,1.37575896760776e-003
4.07380277804111e+001	-1.92302190142719e+000,4.66775649982650e-002	-1.99999900904278e+000,1.40780447922609e-003
4.16869383470333e+001	-1.92290232704832e+000,4.77581152870218e-002	-1.99999896234043e+000,1.44059642445388e-003
4.26579518801591e+001	-1.92277715350855e+000,4.88633570189711e-002	-1.99999891343707e+000,1.47415218980284e-003
4.36515832240164e+001	-1.92264612043840e+000,4.99938314138050e-002	-1.99999886222897e+000,1.50848956675711e-003
4.46683592150961e+001	-1.92250895540440e+000,5.11500898961564e-002	-1.99999880860750e+000,1.54362676120539e-003
4.57088189614873e+001	-1.92236537370097e+000,5.23326941825031e-002	-1.99999875245894e+000,1.57958240309285e-003
4.67735141287196e+001	-1.92221507740333e+000,5.35422163210102e-002	-1.99999869366418e+000,1.61637555629767e-003
4.78630092322636e+001	-1.92205775512765e+000,5.47792387586987e-002	-1.99999863209851e+000,1.65402572873767e-003
4.89778819368444e+001	-1.92189308121713e+000,5.60443543674272e-002	-1.99999856763134e+000,1.69255288271225e-003
5.01187233627270e+001	-1.92172071516457e+000,5.73381664704637e-002	-1.99999850012594e+000,1.73197744548507e-003
5.12861383991362e+001	-1.92154030109519e+000,5.86612888602200e-002	-1.99999842943911e+000,1.77232032011329e-003
5.24807460249770e+001	-1.92135146694931e+000,6.00143457844209e-002	-1.99999835542091e+000,1.81360289652885e-003
5.37031796370250e+001	-1.92115382376768e+000,6.13979719221822e-002	-1.99999827791436e+000,1.85584706287783e-003
5.49540873857622e+001	-1.92094696502102e+000,6.28128123460142e-002	-1.99999819675503e+000,1.89907521712381e-003
5.62341325190346e+001	-1.92073046596558e+000,6.42595224677051e-002	-1.99999811177080e+000,1.94331027892139e-003
5.75439937337154e+001	-1.92050388256945e+000,6.57387679361571e-002	-1.99999802278138e+000,1.98857570176624e-003
5.88843655355586e+001	-1.92026675100274e+000,6.72512245500548e-002	-1.99999792959804e+000,2.03489548542789e-003
