Freq.	V(vout)
1.00000000000000e+000	2.00996357780848e+000,-3.97408568641861e-006
1.02329299228075e+000	2.00996357780826e+000,-4.06665403363512e-006
1.04712854805090e+000	2.00996357780802e+000,-4.16137857464874e-006
1.07151930523761e+000	2.00996357780777e+000,-4.25830953366543e-006
1.09647819614318e+000	2.00996357780751e+000,-4.35749830476141e-006
1.12201845430196e+000	2.00996357780724e+000,-4.45899747913750e-006
1.14815362149688e+000	2.00996357780696e+000,-4.56286087299852e-006
1.17489755493953e+000	2.00996357780666e+000,-4.66914355609120e-006
1.20226443461741e+000	2.00996357780635e+000,-4.77790188090047e-006
1.23026877081238e+000	2.00996357780602e+000,-4.88919351253049e-006
1.25892541179417e+000	2.00996357780568e+000,-5.00307745927620e-006
1.28824955169313e+000	2.00996357780532e+000,-5.11961410391500e-006
1.31825673855641e+000	2.00996357780495e+000,-5.23886523571717e-006
1.34896288259165e+000	2.00996357780455e+000,-5.36089408321243e-006
1.38038426460288e+000	2.00996357780414e+000,-5.48576534771010e-006
1.41253754462275e+000	2.00996357780371e+000,-5.61354523760771e-006
1.44543977074593e+000	2.00996357780326e+000,-5.74430150349421e-006
1.47910838816821e+000	2.00996357780279e+000,-5.87810347407283e-006
1.51356124843621e+000	2.00996357780229e+000,-6.01502209291923e-006
1.54881661891248e+000	2.00996357780178e+000,-6.15512995609713e-006
1.58489319246111e+000	2.00996357780123e+000,-6.29850135065069e-006
1.62181009735893e+000	2.00996357780067e+000,-6.44521229399077e-006
1.65958690743756e+000	2.00996357780007e+000,-6.59534057420171e-006
1.69824365246174e+000	2.00996357779945e+000,-6.74896579128449e-006
1.73780082874937e+000	2.00996357779880e+000,-6.90616939936249e-006
1.77827941003892e+000	2.00996357779812e+000,-7.06703474987063e-006
1.81970085860998e+000	2.00996357779740e+000,-7.23164713574557e-006
1.86208713666287e+000	2.00996357779665e+000,-7.40009383665518e-006
1.90546071796325e+000	2.00996357779587e+000,-7.57246416526662e-006
1.94984459975804e+000	2.00996357779505e+000,-7.74884951461351e-006
1.99526231496888e+000	2.00996357779419e+000,-7.92934340654043e-006
2.04173794466953e+000	2.00996357779329e+000,-8.11404154129820e-006
2.08929613085404e+000	2.00996357779235e+000,-8.30304184828357e-006
2.13796208950223e+000	2.00996357779137e+000,-8.49644453796040e-006
2.18776162394955e+000	2.00996357779033e+000,-8.69435215499447e-006
2.23872113856834e+000	2.00996357778925e+000,-8.89686963262463e-006
2.29086765276777e+000	2.00996357778812e+000,-9.10410434829813e-006
2.34422881531992e+000	2.00996357778693e+000,-9.31616618060323e-006
2.39883291901949e+000	2.00996357778569e+000,-9.53316756753095e-006
2.45470891568503e+000	2.00996357778439e+000,-9.75522356608959e-006
2.51188643150958e+000	2.00996357778303e+000,-9.98245191330822e-006
2.57039578276886e+000	2.00996357778161e+000,-1.02149730886646e-005
2.63026799189538e+000	2.00996357778011e+000,-1.04529103779628e-005
2.69153480392691e+000	2.00996357777855e+000,-1.06963899387046e-005
2.75422870333816e+000	2.00996357777691e+000,-1.09455408669738e-005
2.81838293126445e+000	2.00996357777520e+000,-1.12004952658923e-005
2.88403150312660e+000	2.00996357777341e+000,-1.14613883156565e-005
2.95120922666638e+000	2.00996357777153e+000,-1.17283583452143e-005
3.01995172040201e+000	2.00996357776956e+000,-1.20015469056085e-005
3.09029543251359e+000	2.00996357776750e+000,-1.22810988450323e-005
3.16227766016837e+000	2.00996357776534e+000,-1.25671623856223e-005
3.23593656929628e+000	2.00996357776308e+000,-1.28598892020539e-005
3.31131121482591e+000	2.00996357776072e+000,-1.31594345019621e-005
3.38844156139202e+000	2.00996357775824e+000,-1.34659571082268e-005
3.46736850452531e+000	2.00996357775565e+000,-1.37796195431920e-005
3.54813389233575e+000	2.00996357775293e+000,-1.41005881148338e-005
3.63078054770101e+000	2.00996357775009e+000,-1.44290330049359e-005
3.71535229097172e+000	2.00996357774711e+000,-1.47651283593293e-005
3.80189396320560e+000	2.00996357774399e+000,-1.51090523802147e-005
3.89045144994280e+000	2.00996357774072e+000,-1.54609874206642e-005
3.98107170553496e+000	2.00996357773731e+000,-1.58211200812932e-005
4.07380277804112e+000	2.00996357773373e+000,-1.61896413092055e-005
4.16869383470335e+000	2.00996357772998e+000,-1.65667464992332e-005
4.26579518801592e+000	2.00996357772605e+000,-1.69526355975411e-005
4.36515832240165e+000	2.00996357772194e+000,-1.73475132076347e-005
4.46683592150962e+000	2.00996357771763e+000,-1.77515886988513e-005
4.57088189614874e+000	2.00996357771313e+000,-1.81650763173648e-005
4.67735141287197e+000	2.00996357770841e+000,-1.85881952997829e-005
4.78630092322637e+000	2.00996357770346e+000,-1.90211699893908e-005
4.89778819368445e+000	2.00996357769829e+000,-1.94642299550988e-005
5.01187233627271e+000	2.00996357769287e+000,-1.99176101131683e-005
5.12861383991364e+000	2.00996357768720e+000,-2.03815508517552e-005
5.24807460249771e+000	2.00996357768125e+000,-2.08562981583848e-005
5.37031796370252e+000	2.00996357767503e+000,-2.13421037503617e-005
5.49540873857623e+000	2.00996357766852e+000,-2.18392252082371e-005
5.62341325190348e+000	2.00996357766169e+000,-2.23479261123906e-005
5.75439937337156e+000	2.00996357765455e+000,-2.28684761827791e-005
5.88843655355588e+000	2.00996357764707e+000,-2.34011514219332e-005
6.02559586074356e+000	2.00996357763924e+000,-2.39462342613179e-005
6.16595001861481e+000	2.00996357763103e+000,-2.45040137110713e-005
6.30957344480192e+000	2.00996357762245e+000,-2.50747855132374e-005
6.45654229034654e+000	2.00996357761345e+000,-2.56588522985820e-005
6.60693448007594e+000	2.00996357760404e+000,-2.62565237470426e-005
6.76082975391980e+000	2.00996357759418e+000,-2.68681167519368e-005
6.91830970918935e+000	2.00996357758385e+000,-2.74939555879691e-005
7.07945784384136e+000	2.00996357757304e+000,-2.81343720831706e-005
7.24435960074988e+000	2.00996357756171e+000,-2.87897057948482e-005
7.41310241300916e+000	2.00996357754986e+000,-2.94603041896049e-005
7.58577575029182e+000	2.00996357753744e+000,-3.01465228275886e-005
7.76247116628690e+000	2.00996357752444e+000,-3.08487255510031e-005
7.94328234724279e+000	2.00996357751083e+000,-3.15672846770264e-005
8.12830516164097e+000	2.00996357749658e+000,-3.23025811952209e-005
8.31763771102669e+000	2.00996357748165e+000,-3.30550049695255e-005
8.51138038202374e+000	2.00996357746602e+000,-3.38249549449913e-005
8.70963589956078e+000	2.00996357744966e+000,-3.46128393592796e-005
8.91250938133743e+000	2.00996357743252e+000,-3.54190759591399e-005
9.12010839355907e+000	2.00996357741458e+000,-3.62440922218883e-005
9.33254300796988e+000	2.00996357739579e+000,-3.70883255820623e-005
9.54992586021433e+000	2.00996357737611e+000,-3.79522236633646e-005
9.77237220955808e+000	2.00996357735551e+000,-3.88362445159953e-005
9.99999999999997e+000	2.00996357733393e+000,-3.97408568595103e-005
1.02329299228075e+001	2.00996357731134e+000,-4.06665403313404e-005
1.04712854805090e+001	2.00996357728769e+000,-4.16137857411185e-005
1.07151930523760e+001	2.00996357726292e+000,-4.25830953308950e-005
1.09647819614318e+001	2.00996357723698e+000,-4.35749830414517e-005
1.12201845430196e+001	2.00996357720982e+000,-4.45899747847710e-005
1.14815362149688e+001	2.00996357718138e+000,-4.56286087229070e-005
1.17489755493953e+001	2.00996357715160e+000,-4.66914355533280e-005
1.20226443461741e+001	2.00996357712041e+000,-4.77790188008774e-005
1.23026877081238e+001	2.00996357708776e+000,-4.88919351165923e-005
1.25892541179416e+001	2.00996357705357e+000,-5.00307745834283e-005
1.28824955169313e+001	2.00996357701777e+000,-5.11961410291464e-005
1.31825673855640e+001	2.00996357698027e+000,-5.23886523464548e-005
1.34896288259165e+001	2.00996357694102e+000,-5.36089408206377e-005
1.38038426460288e+001	2.00996357689991e+000,-5.48576534647925e-005
1.41253754462275e+001	2.00996357685686e+000,-5.61354523628868e-005
1.44543977074592e+001	2.00996357681179e+000,-5.74430150208128e-005
1.47910838816820e+001	2.00996357676459e+000,-5.87810347255880e-005
1.51356124843620e+001	2.00996357671517e+000,-6.01502209129653e-005
1.54881661891248e+001	2.00996357666341e+000,-6.15512995435910e-005
1.58489319246111e+001	2.00996357660922e+000,-6.29850134878782e-005
1.62181009735892e+001	2.00996357655248e+000,-6.44521229199497e-005
1.65958690743755e+001	2.00996357649306e+000,-6.59534057206273e-005
1.69824365246174e+001	2.00996357643084e+000,-6.74896578899282e-005
1.73780082874937e+001	2.00996357636568e+000,-6.90616939690717e-005
1.77827941003892e+001	2.00996357629746e+000,-7.06703474723903e-005
1.81970085860998e+001	2.00996357622602e+000,-7.23164713292670e-005
1.86208713666286e+001	2.00996357615122e+000,-7.40009383363324e-005
1.90546071796324e+001	2.00996357607289e+000,-7.57246416202976e-005
1.94984459975804e+001	2.00996357599086e+000,-7.74884951114466e-005
1.99526231496887e+001	2.00996357590498e+000,-7.92934340282325e-005
2.04173794466952e+001	2.00996357581504e+000,-8.11404153731541e-005
2.08929613085403e+001	2.00996357572087e+000,-8.30304184401595e-005
2.13796208950222e+001	2.00996357562225e+000,-8.49644453338759e-005
2.18776162394954e+001	2.00996357551900e+000,-8.69435215009504e-005
2.23872113856833e+001	2.00996357541087e+000,-8.89686962737486e-005
2.29086765276776e+001	2.00996357529765e+000,-9.10410434267237e-005
2.34422881531991e+001	2.00996357517909e+000,-9.31616617457556e-005
2.39883291901948e+001	2.00996357505494e+000,-9.53316756107268e-005
2.45470891568502e+001	2.00996357492495e+000,-9.75522355916827e-005
2.51188643150957e+001	2.00996357478883e+000,-9.98245190589239e-005
2.57039578276885e+001	2.00996357464629e+000,-1.02149730807180e-004
2.63026799189537e+001	2.00996357449703e+000,-1.04529103694479e-004
2.69153480392690e+001	2.00996357434074e+000,-1.06963899295802e-004
2.75422870333815e+001	2.00996357417709e+000,-1.09455408571983e-004
2.81838293126444e+001	2.00996357400572e+000,-1.12004952554168e-004
2.88403150312659e+001	2.00996357382627e+000,-1.14613883044306e-004
2.95120922666637e+001	2.00996357363837e+000,-1.17283583331864e-004
3.01995172040200e+001	2.00996357344162e+000,-1.20015468927221e-004
3.09029543251358e+001	2.00996357323559e+000,-1.22810988312233e-004
3.16227766016837e+001	2.00996357301984e+000,-1.25671623708260e-004
3.23593656929627e+001	2.00996357279394e+000,-1.28598891861988e-004
3.31131121482590e+001	2.00996357255738e+000,-1.31594344849720e-004
3.38844156139201e+001	2.00996357230968e+000,-1.34659570900219e-004
3.46736850452530e+001	2.00996357205030e+000,-1.37796195236856e-004
3.54813389233574e+001	2.00996357177870e+000,-1.41005880939333e-004
3.63078054770100e+001	2.00996357149430e+000,-1.44290329825413e-004
3.71535229097171e+001	2.00996357119650e+000,-1.47651283353325e-004
3.80189396320559e+001	2.00996357088466e+000,-1.51090523545021e-004
3.89045144994279e+001	2.00996357055812e+000,-1.54609873931121e-004
3.98107170553495e+001	2.00996357021620e+000,-1.58211200517705e-004
4.07380277804111e+001	2.00996356985816e+000,-1.61896412775711e-004
4.16869383470333e+001	2.00996356948325e+000,-1.65667464653356e-004
4.26579518801591e+001	2.00996356909067e+000,-1.69526355612195e-004
4.36515832240164e+001	2.00996356867958e+000,-1.73475131687156e-004
4.46683592150961e+001	2.00996356824912e+000,-1.77515886571489e-004
4.57088189614873e+001	2.00996356779838e+000,-1.81650762726809e-004
4.67735141287196e+001	2.00996356732639e+000,-1.85881952519023e-004
4.78630092322636e+001	2.00996356683216e+000,-1.90211699380853e-004
4.89778819368444e+001	2.00996356631463e+000,-1.94642299001251e-004
5.01187233627270e+001	2.00996356577272e+000,-1.99176100542623e-004
5.12861383991362e+001	2.00996356520527e+000,-2.03815507886369e-004
5.24807460249770e+001	2.00996356461107e+000,-2.08562980907517e-004
5.37031796370250e+001	2.00996356398887e+000,-2.13421036778881e-004
5.49540873857622e+001	2.00996356333734e+000,-2.18392251305847e-004
5.62341325190346e+001	2.00996356265512e+000,-2.23479260291839e-004
5.75439937337154e+001	2.00996356194073e+000,-2.28684760936203e-004
5.88843655355586e+001	2.00996356119268e+000,-2.34011513263979e-004
6.02559586074355e+001	2.00996356040938e+000,-2.39462341589518e-004
6.16595001861479e+001	2.00996355958916e+000,-2.45040136013829e-004
6.30957344480190e+001	2.00996355873028e+000,-2.50747853957033e-004
6.45654229034652e+001	2.00996355783093e+000,-2.56588521726424e-004
6.60693448007593e+001	2.00996355688919e+000,-2.62565236120965e-004
6.76082975391978e+001	2.00996355590307e+000,-2.68681166073383e-004
6.91830970918933e+001	2.00996355487047e+000,-2.74939554330295e-004
7.07945784384134e+001	2.00996355378921e+000,-2.81343719171481e-004
7.24435960074986e+001	2.00996355265699e+000,-2.87897056169499e-004
7.41310241300914e+001	2.00996355147141e+000,-2.94603039989876e-004
7.58577575029180e+001	2.00996355022996e+000,-3.01465226233379e-004
7.76247116628688e+001	2.00996354893000e+000,-3.08487253321436e-004
7.94328234724277e+001	2.00996354756877e+000,-3.15672844425170e-004
8.12830516164095e+001	2.00996354614339e+000,-3.23025809439380e-004
8.31763771102667e+001	2.00996354465083e+000,-3.30550047002723e-004
8.51138038202372e+001	2.00996354308794e+000,-3.38249546564804e-004
8.70963589956076e+001	2.00996354145138e+000,-3.46128390501339e-004
8.91250938133741e+001	2.00996353973770e+000,-3.54190756278869e-004
9.12010839355905e+001	2.00996353794325e+000,-3.62440918669426e-004
9.33254300796986e+001	2.00996353606423e+000,-3.70883252017308e-004
9.54992586021431e+001	2.00996353409666e+000,-3.79522232558325e-004
9.77237220955805e+001	2.00996353203636e+000,-3.88362440793120e-004
9.99999999999995e+001	2.00996352987896e+000,-3.97408563915969e-004
1.02329299228075e+002	2.00996352761989e+000,-4.06665398299624e-004
1.04712854805089e+002	2.00996352525435e+000,-4.16137852038833e-004
1.07151930523760e+002	2.00996352277732e+000,-4.25830947552395e-004
1.09647819614318e+002	2.00996352018356e+000,-4.35749824246234e-004
1.12201845430196e+002	2.00996351746755e+000,-4.45899741238243e-004
1.14815362149688e+002	2.00996351462355e+000,-4.56286080146948e-004
1.17489755493952e+002	2.00996351164551e+000,-4.66914347944611e-004
1.20226443461741e+002	2.00996350852711e+000,-4.77790179877444e-004
1.23026877081237e+002	2.00996350526176e+000,-4.88919342453034e-004
1.25892541179416e+002	2.00996350184251e+000,-5.00307736498268e-004
1.28824955169313e+002	2.00996349826212e+000,-5.11961400287696e-004
1.31825673855640e+002	2.00996349451299e+000,-5.23886512745337e-004
1.34896288259165e+002	2.00996349058717e+000,-5.36089396720546e-004
1.38038426460288e+002	2.00996348647633e+000,-5.48576522340613e-004
1.41253754462275e+002	2.00996348217175e+000,-5.61354510441420e-004
1.44543977074592e+002	2.00996347766430e+000,-5.74430136077443e-004
1.47910838816820e+002	2.00996347294443e+000,-5.87810332114606e-004
1.51356124843620e+002	2.00996346800211e+000,-6.01502192905479e-004
1.54881661891247e+002	2.00996346282687e+000,-6.15512978051335e-004
1.58489319246110e+002	2.00996345740773e+000,-6.29850116250906e-004
1.62181009735892e+002	2.00996345173319e+000,-6.44521209239356e-004
1.65958690743755e+002	2.00996344579122e+000,-6.59534035818638e-004
1.69824365246173e+002	2.00996343956921e+000,-6.74896555982025e-004
1.73780082874936e+002	2.00996343305397e+000,-6.90616915134430e-004
1.77827941003891e+002	2.00996342623167e+000,-7.06703448411346e-004
1.81970085860997e+002	2.00996341908785e+000,-7.23164685098223e-004
1.86208713666286e+002	2.00996341160735e+000,-7.40009353152544e-004
1.90546071796323e+002	2.00996340377431e+000,-7.57246383831545e-004
1.94984459975803e+002	2.00996339557211e+000,-7.74884916427808e-004
1.99526231496887e+002	2.00996338698334e+000,-7.92934303114905e-004
2.04173794466952e+002	2.00996337798981e+000,-8.11404113905988e-004
2.08929613085403e+002	2.00996336857242e+000,-8.30304141727642e-004
2.13796208950222e+002	2.00996335871120e+000,-8.49644407612842e-004
2.18776162394954e+002	2.00996334838524e+000,-8.69435166013265e-004
2.23872113856832e+002	2.00996333757263e+000,-8.89686910237070e-004
2.29086765276776e+002	2.00996332625043e+000,-9.10410378012058e-004
2.34422881531991e+002	2.00996331439464e+000,-9.31616557179000e-004
2.39883291901947e+002	2.00996330198011e+000,-9.53316691517613e-004
2.45470891568501e+002	2.00996328898049e+000,-9.75522286707882e-004
2.51188643150956e+002	2.00996327536822e+000,-9.98245116430455e-004
2.57039578276885e+002	2.00996326111443e+000,-1.02149722860916e-003
2.63026799189536e+002	2.00996324618887e+000,-1.04529095179913e-003
2.69153480392690e+002	2.00996323055990e+000,-1.06963890172275e-003
2.75422870333815e+002	2.00996321419435e+000,-1.09455398795948e-003
2.81838293126443e+002	2.00996319705752e+000,-1.12004942078964e-003
2.88403150312659e+002	2.00996317911305e+000,-1.14613871819928e-003
2.95120922666637e+002	2.00996316032289e+000,-1.17283571304730e-003
3.01995172040200e+002	2.00996314064718e+000,-1.20015456039896e-003
3.09029543251357e+002	2.00996312004418e+000,-1.22810974503225e-003
3.16227766016836e+002	2.00996309847019e+000,-1.25671608911628e-003
3.23593656929626e+002	2.00996307587945e+000,-1.28598876007120e-003
3.31131121482589e+002	2.00996305222403e+000,-1.31594327860925e-003
3.38844156139200e+002	2.00996302745378e+000,-1.34659552696394e-003
3.46736850452529e+002	2.00996300151614e+000,-1.37796175731111e-003
3.54813389233573e+002	2.00996297435609e+000,-1.41005860038545e-003
3.63078054770099e+002	2.00996294591604e+000,-1.44290307429811e-003
3.71535229097170e+002	2.00996291613564e+000,-1.47651259356007e-003
3.80189396320558e+002	2.00996288495174e+000,-1.51090497831431e-003
3.89045144994278e+002	2.00996285229819e+000,-1.54609846378526e-003
3.98107170553494e+002	2.00996281810572e+000,-1.58211170994558e-003
4.07380277804110e+002	2.00996278230181e+000,-1.61896381141093e-003
4.16869383470332e+002	2.00996274481052e+000,-1.65667430756257e-003
4.26579518801589e+002	2.00996270555231e+000,-1.69526319290793e-003
4.36515832240163e+002	2.00996266444393e+000,-1.73475092768072e-003
4.46683592150960e+002	2.00996262139816e+000,-1.77515844868947e-003
4.57088189614872e+002	2.00996257632372e+000,-1.81650718041713e-003
4.67735141287195e+002	2.00996252912498e+000,-1.85881904638086e-003
4.78630092322635e+002	2.00996247970183e+000,-1.90211648075507e-003
4.89778819368443e+002	2.00996242794945e+000,-1.94642244026579e-003
5.01187233627268e+002	2.00996237375805e+000,-1.99176041636218e-003
5.12861383991361e+002	2.00996231701269e+000,-2.03815444767010e-003
5.24807460249769e+002	2.00996225759300e+000,-2.08562913273915e-003
5.37031796370249e+002	2.00996219537296e+000,-2.13420964308185e-003
5.49540873857620e+002	2.00996213022057e+000,-2.18392173652072e-003
5.62341325190345e+002	2.00996206199765e+000,-2.23479177084350e-003
5.75439937337152e+002	2.00996199055948e+000,-2.28684671777765e-003
5.88843655355584e+002	2.00996191575454e+000,-2.34011417728980e-003
6.02559586074353e+002	2.00996183742415e+000,-2.39462239221929e-003
6.16595001861477e+002	2.00996175540217e+000,-2.45040026324961e-003
6.30957344480188e+002	2.00996166951461e+000,-2.50747736423329e-003
6.45654229034650e+002	2.00996157957930e+000,-2.56588395786783e-003
6.60693448007591e+002	2.00996148540548e+000,-2.62565101174206e-003
6.76082975391976e+002	2.00996138679338e+000,-2.68681021475353e-003
6.91830970918931e+002	2.00996128353384e+000,-2.74939399390676e-003
7.07945784384132e+002	2.00996117540784e+000,-2.81343553150725e-003
7.24435960074984e+002	2.00996106218601e+000,-2.87896878275073e-003
7.41310241300911e+002	2.00996094362822e+000,-2.94602849372548e-003
7.58577575029177e+002	2.00996081948297e+000,-3.01465021983242e-003
7.76247116628685e+002	2.00996068948694e+000,-3.08487034463511e-003
7.94328234724275e+002	2.00996055336440e+000,-3.15672609914638e-003
8.12830516164092e+002	2.00996041082660e+000,-3.23025558156831e-003
8.31763771102664e+002	2.00996026157122e+000,-3.30549777748626e-003
8.51138038202369e+002	2.00996010528166e+000,-3.38249258053829e-003
8.70963589956073e+002	2.00995994162640e+000,-3.46128081356307e-003
8.91250938133738e+002	2.00995977025833e+000,-3.54190425024006e-003
9.12010839355902e+002	2.00995959081394e+000,-3.62440563723447e-003
9.33254300796983e+002	2.00995940291260e+000,-3.70882871685842e-003
