Freq.	V(vout)/I(Ip)
1.00000000000000e+000	1.05597989994165e+006,-2.08856538938921e+000
1.02329299228075e+000	1.05597989994153e+006,-2.13721432688198e+000
1.04712854805090e+000	1.05597989994140e+006,-2.18699644370021e+000
1.07151930523761e+000	1.05597989994127e+006,-2.23793813498130e+000
1.09647819614318e+000	1.05597989994114e+006,-2.29006641068385e+000
1.12201845430196e+000	1.05597989994100e+006,-2.34340890991031e+000
1.14815362149688e+000	1.05597989994085e+006,-2.39799391555932e+000
1.17489755493953e+000	1.05597989994069e+006,-2.45385036932363e+000
1.20226443461741e+000	1.05597989994053e+006,-2.51100788703410e+000
1.23026877081238e+000	1.05597989994035e+006,-2.56949677436366e+000
1.25892541179417e+000	1.05597989994017e+006,-2.62934804289389e+000
1.28824955169313e+000	1.05597989993999e+006,-2.69059342656037e+000
1.31825673855641e+000	1.05597989993979e+006,-2.75326539847559e+000
1.34896288259165e+000	1.05597989993958e+006,-2.81739718814898e+000
1.38038426460288e+000	1.05597989993937e+006,-2.88302279910409e+000
1.41253754462275e+000	1.05597989993914e+006,-2.95017702690852e+000
1.44543977074593e+000	1.05597989993890e+006,-3.01889547762286e+000
1.47910838816821e+000	1.05597989993865e+006,-3.08921458667912e+000
1.51356124843621e+000	1.05597989993840e+006,-3.16117163819985e+000
1.54881661891248e+000	1.05597989993812e+006,-3.23480478476603e+000
1.58489319246111e+000	1.05597989993784e+006,-3.31015306764700e+000
1.62181009735893e+000	1.05597989993754e+006,-3.38725643749932e+000
1.65958690743756e+000	1.05597989993723e+006,-3.46615577555034e+000
1.69824365246174e+000	1.05597989993690e+006,-3.54689291527353e+000
1.73780082874937e+000	1.05597989993656e+006,-3.62951066456895e+000
1.77827941003892e+000	1.05597989993620e+006,-3.71405282846126e+000
1.81970085860998e+000	1.05597989993582e+006,-3.80056423232406e+000
1.86208713666287e+000	1.05597989993543e+006,-3.88909074564986e+000
1.90546071796325e+000	1.05597989993502e+006,-3.97967930636613e+000
1.94984459975804e+000	1.05597989993459e+006,-4.07237794572855e+000
1.99526231496888e+000	1.05597989993414e+006,-4.16723581378200e+000
2.04173794466953e+000	1.05597989993366e+006,-4.26430320542332e+000
2.08929613085404e+000	1.05597989993317e+006,-4.36363158706911e+000
2.13796208950223e+000	1.05597989993265e+006,-4.46527362394166e+000
2.18776162394955e+000	1.05597989993211e+006,-4.56928320799430e+000
2.23872113856834e+000	1.05597989993154e+006,-4.67571548648538e+000
2.29086765276777e+000	1.05597989993094e+006,-4.78462689121807e+000
2.34422881531992e+000	1.05597989993032e+006,-4.89607516846003e+000
2.39883291901949e+000	1.05597989992967e+006,-5.01011940956319e+000
2.45470891568503e+000	1.05597989992898e+006,-5.12682008229427e+000
2.51188643150958e+000	1.05597989992827e+006,-5.24623906289400e+000
2.57039578276886e+000	1.05597989992752e+006,-5.36843966888731e+000
2.63026799189538e+000	1.05597989992674e+006,-5.49348669265241e+000
2.69153480392691e+000	1.05597989992591e+006,-5.62144643577668e+000
2.75422870333816e+000	1.05597989992505e+006,-5.75238674420940e+000
2.81838293126445e+000	1.05597989992415e+006,-5.88637704423582e+000
2.88403150312660e+000	1.05597989992321e+006,-6.02348837928629e+000
2.95120922666638e+000	1.05597989992222e+006,-6.16379344760515e+000
3.01995172040201e+000	1.05597989992119e+006,-6.30736664079688e+000
3.09029543251359e+000	1.05597989992011e+006,-6.45428408326972e+000
3.16227766016837e+000	1.05597989991897e+006,-6.60462367259579e+000
3.23593656929628e+000	1.05597989991778e+006,-6.75846512081484e+000
3.31131121482591e+000	1.05597989991654e+006,-6.91588999670025e+000
3.38844156139202e+000	1.05597989991524e+006,-7.07698176900340e+000
3.46736850452531e+000	1.05597989991387e+006,-7.24182585071490e+000
3.54813389233575e+000	1.05597989991245e+006,-7.41050964434927e+000
3.63078054770101e+000	1.05597989991095e+006,-7.58312258828563e+000
3.71535229097172e+000	1.05597989990939e+006,-7.75975620419370e+000
3.80189396320560e+000	1.05597989990775e+006,-7.94050414555159e+000
3.89045144994280e+000	1.05597989990603e+006,-8.12546224731271e+000
3.98107170553496e+000	1.05597989990423e+006,-8.31472857670999e+000
4.07380277804112e+000	1.05597989990235e+006,-8.50840348525682e+000
4.16869383470335e+000	1.05597989990038e+006,-8.70658966195154e+000
4.26579518801592e+000	1.05597989989832e+006,-8.90939218773108e+000
4.36515832240165e+000	1.05597989989616e+006,-9.11691859117646e+000
4.46683592150962e+000	1.05597989989389e+006,-9.32927890553504e+000
4.57088189614874e+000	1.05597989989152e+006,-9.54658572705624e+000
4.67735141287197e+000	1.05597989988904e+006,-9.76895427469265e+000
4.78630092322637e+000	1.05597989988644e+006,-9.99650245119195e+000
4.89778819368445e+000	1.05597989988372e+006,-1.02293509056082e+001
5.01187233627271e+000	1.05597989988087e+006,-1.04676230972766e+001
5.12861383991364e+000	1.05597989987789e+006,-1.07114453612634e+001
5.24807460249771e+000	1.05597989987477e+006,-1.09609469753634e+001
5.37031796370252e+000	1.05597989987150e+006,-1.12162602286336e+001
5.49540873857623e+000	1.05597989986807e+006,-1.14775204915386e+001
5.62341325190348e+000	1.05597989986449e+006,-1.17448662877293e+001
5.75439937337156e+000	1.05597989986073e+006,-1.20184393674877e+001
5.88843655355588e+000	1.05597989985680e+006,-1.22983847828785e+001
6.02559586074356e+000	1.05597989985268e+006,-1.25848509646668e+001
6.16595001861481e+000	1.05597989984837e+006,-1.28779898010157e+001
6.30957344480192e+000	1.05597989984386e+006,-1.31779567180143e+001
6.45654229034654e+000	1.05597989983913e+006,-1.34849107620929e+001
6.60693448007594e+000	1.05597989983418e+006,-1.37990146843484e+001
6.76082975391980e+000	1.05597989982899e+006,-1.41204350268386e+001
6.91830970918935e+000	1.05597989982357e+006,-1.44493422108833e+001
7.07945784384136e+000	1.05597989981788e+006,-1.47859106274234e+001
7.24435960074988e+000	1.05597989981193e+006,-1.51303187294894e+001
7.41310241300916e+000	1.05597989980570e+006,-1.54827491268148e+001
7.58577575029182e+000	1.05597989979917e+006,-1.58433886826617e+001
7.76247116628690e+000	1.05597989979234e+006,-1.62124286128954e+001
7.94328234724279e+000	1.05597989978518e+006,-1.65900645873712e+001
8.12830516164097e+000	1.05597989977769e+006,-1.69764968336833e+001
8.31763771102669e+000	1.05597989976985e+006,-1.73719302433196e+001
8.51138038202374e+000	1.05597989976163e+006,-1.77765744803104e+001
8.70963589956078e+000	1.05597989975303e+006,-1.81906440923845e+001
8.91250938133743e+000	1.05597989974402e+006,-1.86143586247307e+001
9.12010839355907e+000	1.05597989973459e+006,-1.90479427364040e+001
9.33254300796988e+000	1.05597989972471e+006,-1.94916263194363e+001
9.54992586021433e+000	1.05597989971437e+006,-1.99456446207363e+001
9.77237220955808e+000	1.05597989970354e+006,-2.04102383668180e+001
9.99999999999997e+000	1.05597989969220e+006,-2.08856538914338e+001
1.02329299228075e+001	1.05597989968032e+006,-2.13721432661853e+001
1.04712854805090e+001	1.05597989966789e+006,-2.18699644341794e+001
1.07151930523760e+001	1.05597989965487e+006,-2.23793813467859e+001
1.09647819614318e+001	1.05597989964123e+006,-2.29006641035991e+001
1.12201845430196e+001	1.05597989962695e+006,-2.34340890956302e+001
1.14815362149688e+001	1.05597989961201e+006,-2.39799391518707e+001
1.17489755493953e+001	1.05597989959635e+006,-2.45385036892484e+001
1.20226443461741e+001	1.05597989957996e+006,-2.51100788660683e+001
1.23026877081238e+001	1.05597989956279e+006,-2.56949677390559e+001
1.25892541179416e+001	1.05597989954482e+006,-2.62934804240326e+001
1.28824955169313e+001	1.05597989952600e+006,-2.69059342603454e+001
1.31825673855640e+001	1.05597989950629e+006,-2.75326539791212e+001
1.34896288259165e+001	1.05597989948566e+006,-2.81739718754516e+001
1.38038426460288e+001	1.05597989946405e+006,-2.88302279845696e+001
1.41253754462275e+001	1.05597989944142e+006,-2.95017702621508e+001
1.44543977074592e+001	1.05597989941773e+006,-3.01889547687998e+001
1.47910838816820e+001	1.05597989939292e+006,-3.08921458588310e+001
1.51356124843620e+001	1.05597989936694e+006,-3.16117163734678e+001
1.54881661891248e+001	1.05597989933973e+006,-3.23480478385227e+001
1.58489319246111e+001	1.05597989931125e+006,-3.31015306666765e+001
1.62181009735892e+001	1.05597989928142e+006,-3.38725643645007e+001
1.65958690743755e+001	1.05597989925018e+006,-3.46615577442593e+001
1.69824365246174e+001	1.05597989921748e+006,-3.54689291406879e+001
1.73780082874937e+001	1.05597989918323e+006,-3.62951066327825e+001
1.77827941003892e+001	1.05597989914737e+006,-3.71405282707776e+001
1.81970085860998e+001	1.05597989910981e+006,-3.80056423084207e+001
1.86208713666286e+001	1.05597989907049e+006,-3.88909074406127e+001
1.90546071796324e+001	1.05597989902932e+006,-3.97967930466453e+001
1.94984459975804e+001	1.05597989898620e+006,-4.07237794390503e+001
1.99526231496887e+001	1.05597989894105e+006,-4.16723581182771e+001
2.04173794466952e+001	1.05597989889378e+006,-4.26430320332945e+001
2.08929613085403e+001	1.05597989884428e+006,-4.36363158482545e+001
2.13796208950222e+001	1.05597989879244e+006,-4.46527362153769e+001
2.18776162394954e+001	1.05597989873816e+006,-4.56928320541864e+001
2.23872113856833e+001	1.05597989868132e+006,-4.67571548372562e+001
2.29086765276776e+001	1.05597989862181e+006,-4.78462688826030e+001
2.34422881531991e+001	1.05597989855949e+006,-4.89607516529103e+001
2.39883291901948e+001	1.05597989849423e+006,-5.01011940616786e+001
2.45470891568502e+001	1.05597989842589e+006,-5.12682007865548e+001
2.51188643150957e+001	1.05597989835434e+006,-5.24623905899534e+001
2.57039578276885e+001	1.05597989827941e+006,-5.36843966470979e+001
2.63026799189537e+001	1.05597989820096e+006,-5.49348668817586e+001
2.69153480392690e+001	1.05597989811880e+006,-5.62144643097988e+001
2.75422870333815e+001	1.05597989803277e+006,-5.75238673907027e+001
2.81838293126444e+001	1.05597989794269e+006,-5.88637703872836e+001
2.88403150312659e+001	1.05597989784837e+006,-6.02348837338460e+001
2.95120922666637e+001	1.05597989774959e+006,-6.16379344128188e+001
3.01995172040200e+001	1.05597989764617e+006,-6.30736663402244e+001
3.09029543251358e+001	1.05597989753787e+006,-6.45428407601041e+001
3.16227766016837e+001	1.05597989742446e+006,-6.60462366481706e+001
3.23593656929627e+001	1.05597989730571e+006,-6.75846511247953e+001
3.31131121482590e+001	1.05597989718136e+006,-6.91588998776803e+001
3.38844156139201e+001	1.05597989705116e+006,-7.07698175943304e+001
3.46736850452530e+001	1.05597989691481e+006,-7.24182584045989e+001
3.54813389233574e+001	1.05597989677204e+006,-7.41050963336142e+001
3.63078054770100e+001	1.05597989662255e+006,-7.58312257651215e+001
3.71535229097171e+001	1.05597989646600e+006,-7.75975619157817e+001
3.80189396320559e+001	1.05597989630208e+006,-7.94050413203406e+001
3.89045144994279e+001	1.05597989613044e+006,-8.12546223282831e+001
3.98107170553495e+001	1.05597989595070e+006,-8.31472856118945e+001
4.07380277804111e+001	1.05597989576250e+006,-8.50840346862570e+001
4.16869383470333e+001	1.05597989556542e+006,-8.70658964413132e+001
4.26579518801591e+001	1.05597989535906e+006,-8.90939216863587e+001
4.36515832240164e+001	1.05597989514297e+006,-9.11691857071568e+001
4.46683592150961e+001	1.05597989491669e+006,-9.32927888361090e+001
4.57088189614873e+001	1.05597989467975e+006,-9.54658570356486e+001
4.67735141287196e+001	1.05597989443165e+006,-9.76895424952067e+001
4.78630092322636e+001	1.05597989417185e+006,-9.99650242421933e+001
4.89778819368444e+001	1.05597989389981e+006,-1.02293508767076e+002
5.01187233627270e+001	1.05597989361495e+006,-1.04676230663081e+002
5.12861383991362e+001	1.05597989331666e+006,-1.07114453280806e+002
5.24807460249770e+001	1.05597989300432e+006,-1.09609469398068e+002
5.37031796370250e+001	1.05597989267725e+006,-1.12162601905322e+002
5.49540873857622e+001	1.05597989233478e+006,-1.14775204507150e+002
5.62341325190346e+001	1.05597989197616e+006,-1.17448662439860e+002
5.75439937337154e+001	1.05597989160064e+006,-1.20184393206147e+002
5.88843655355586e+001	1.05597989120742e+006,-1.22983847326531e+002
6.02559586074355e+001	1.05597989079567e+006,-1.25848509108505e+002
6.16595001861479e+001	1.05597989036451e+006,-1.28779897433503e+002
6.30957344480190e+001	1.05597988991304e+006,-1.31779566562241e+002
6.45654229034652e+001	1.05597988944028e+006,-1.34849106958838e+002
6.60693448007593e+001	1.05597988894525e+006,-1.37990146134042e+002
6.76082975391978e+001	1.05597988842689e+006,-1.41204349508201e+002
6.91830970918933e+001	1.05597988788409e+006,-1.44493421294279e+002
7.07945784384134e+001	1.05597988731572e+006,-1.47859105401414e+002
7.24435960074986e+001	1.05597988672056e+006,-1.51303186359646e+002
7.41310241300914e+001	1.05597988609735e+006,-1.54827490266031e+002
7.58577575029180e+001	1.05597988544477e+006,-1.58433885752825e+002
7.76247116628688e+001	1.05597988476143e+006,-1.62124284978361e+002
7.94328234724277e+001	1.05597988404589e+006,-1.65900644640839e+002
8.12830516164095e+001	1.05597988329663e+006,-1.69764967015780e+002
8.31763771102667e+001	1.05597988251206e+006,-1.73719301017666e+002
8.51138038202372e+001	1.05597988169051e+006,-1.77765743286339e+002
8.70963589956076e+001	1.05597988083024e+006,-1.81906439298594e+002
8.91250938133741e+001	1.05597987992943e+006,-1.86143584505831e+002
9.12010839355905e+001	1.05597987898616e+006,-1.90479425498009e+002
9.33254300796986e+001	1.05597987799844e+006,-1.94916261194872e+002
9.54992586021431e+001	1.05597987696417e+006,-1.99456444064870e+002
9.77237220955805e+001	1.05597987588116e+006,-2.04102381372433e+002
9.99999999999995e+001	1.05597987474710e+006,-2.08856536454411e+002
1.02329299228075e+002	1.05597987355960e+006,-2.13721430025997e+002
1.04712854805089e+002	1.05597987231614e+006,-2.18699641517422e+002
1.07151930523760e+002	1.05597987101407e+006,-2.23793810441502e+002
1.09647819614318e+002	1.05597986965063e+006,-2.29006637793178e+002
1.12201845430196e+002	1.05597986822294e+006,-2.34340887481566e+002
1.14815362149688e+002	1.05597986672797e+006,-2.39799387795485e+002
1.17489755493952e+002	1.05597986516254e+006,-2.45385032902953e+002
1.20226443461741e+002	1.05597986352333e+006,-2.51100784385853e+002
1.23026877081237e+002	1.05597986180687e+006,-2.56949672809992e+002
1.25892541179416e+002	1.05597986000951e+006,-2.62934799332162e+002
1.28824955169313e+002	1.05597985812745e+006,-2.69059337344234e+002
1.31825673855640e+002	1.05597985615669e+006,-2.75326534155882e+002
1.34896288259165e+002	1.05597985409305e+006,-2.81739712716137e+002
1.38038426460288e+002	1.05597985193215e+006,-2.88302273375469e+002
1.41253754462275e+002	1.05597984966942e+006,-2.95017695688550e+002
1.44543977074592e+002	1.05597984730004e+006,-3.01889540259163e+002
1.47910838816820e+002	1.05597984481900e+006,-3.08921450628194e+002
1.51356124843620e+002	1.05597984222103e+006,-3.16117155205265e+002
1.54881661891247e+002	1.05597983950062e+006,-3.23480469245769e+002
1.58489319246110e+002	1.05597983665201e+006,-3.31015296873662e+002
1.62181009735892e+002	1.05597983366914e+006,-3.38725633151503e+002
1.65958690743755e+002	1.05597983054569e+006,-3.46615566198621e+002
1.69824365246173e+002	1.05597982727504e+006,-3.54689279358753e+002
1.73780082874936e+002	1.05597982385025e+006,-3.62951053418015e+002
1.77827941003891e+002	1.05597982026406e+006,-3.71405268874678e+002
1.81970085860997e+002	1.05597981650885e+006,-3.80056408261746e+002
1.86208713666286e+002	1.05597981257666e+006,-3.88909058523616e+002
1.90546071796323e+002	1.05597980845916e+006,-3.97967913448039e+002
1.94984459975803e+002	1.05597980414761e+006,-4.07237776154930e+002
1.99526231496887e+002	1.05597979963285e+006,-4.16723561643018e+002
2.04173794466952e+002	1.05597979490533e+006,-4.26430299395743e+002
2.08929613085403e+002	1.05597978995500e+006,-4.36363136047881e+002
2.13796208950222e+002	1.05597978477137e+006,-4.46527338114600e+002
2.18776162394954e+002	1.05597977934344e+006,-4.56928294783436e+002
2.23872113856832e+002	1.05597977365971e+006,-4.67571520771879e+002
2.29086765276776e+002	1.05597976770810e+006,-4.78462659251415e+002
2.34422881531991e+002	1.05597976147601e+006,-4.89607484839290e+002
2.39883291901947e+002	1.05597975495021e+006,-5.01011906660537e+002
2.45470891568501e+002	1.05597974811685e+006,-5.12681971480830e+002
2.51188643150956e+002	1.05597974096145e+006,-5.24623866912577e+002
2.57039578276885e+002	1.05597973346883e+006,-5.36843924695645e+002
2.63026799189536e+002	1.05597972562309e+006,-5.49348624054564e+002
2.69153480392690e+002	1.05597971740759e+006,-5.62144595133534e+002
2.75422870333815e+002	1.05597970880490e+006,-5.75238622512157e+002
2.81838293126443e+002	1.05597969979679e+006,-5.88637648802301e+002
2.88403150312659e+002	1.05597969036413e+006,-6.02348778329329e+002
2.95120922666637e+002	1.05597968048693e+006,-6.16379280898806e+002
3.01995172040200e+002	1.05597967014423e+006,-6.30736595650606e+002
3.09029543251357e+002	1.05597965931409e+006,-6.45428335003892e+002
3.16227766016836e+002	1.05597964797355e+006,-6.60462288692437e+002
3.23593656929626e+002	1.05597963609854e+006,-6.75846427895277e+002
3.31131121482589e+002	1.05597962366388e+006,-6.91588909462862e+002
3.38844156139200e+002	1.05597961064320e+006,-7.07698080241591e+002
3.46736850452529e+002	1.05597959700886e+006,-7.24182481499842e+002
3.54813389233573e+002	1.05597958273196e+006,-7.41050853455907e+002
3.63078054770099e+002	1.05597956778221e+006,-7.58312139912434e+002
3.71535229097170e+002	1.05597955212791e+006,-7.75975492998431e+002
3.80189396320558e+002	1.05597953573583e+006,-7.94050278021205e+002
3.89045144994278e+002	1.05597951857122e+006,-8.12546078432524e+002
3.98107170553494e+002	1.05597950059767e+006,-8.31472700909013e+002
4.07380277804110e+002	1.05597948177706e+006,-8.50840180552127e+002
4.16869383470332e+002	1.05597946206945e+006,-8.70658786208308e+002
4.26579518801589e+002	1.05597944143306e+006,-8.90939025913681e+002
4.36515832240163e+002	1.05597941982410e+006,-9.11691652465013e+002
4.46683592150960e+002	1.05597939719674e+006,-9.32927669121271e+002
4.57088189614872e+002	1.05597937350299e+006,-9.54658335436699e+002
4.67735141287195e+002	1.05597934869258e+006,-9.76895173231035e+002
4.78630092322635e+002	1.05597932271290e+006,-9.99649972698011e+002
4.89778819368443e+002	1.05597929550884e+006,-1.02293479865636e+003
5.01187233627268e+002	1.05597926702269e+006,-1.04676199694641e+003
5.12861383991361e+002	1.05597923719402e+006,-1.07114420097516e+003
5.24807460249769e+002	1.05597920595958e+006,-1.09609433841538e+003
5.37031796370249e+002	1.05597917325310e+006,-1.12162563805823e+003
5.49540873857620e+002	1.05597913900522e+006,-1.14775163682783e+003
5.62341325190345e+002	1.05597910314328e+006,-1.17448618695776e+003
5.75439937337152e+002	1.05597906559122e+006,-1.20184346333518e+003
5.88843655355584e+002	1.05597902626939e+006,-1.22983797101604e+003
6.02559586074353e+002	1.05597898509438e+006,-1.25848455291528e+003
6.16595001861477e+002	1.05597894197886e+006,-1.28779839767556e+003
6.30957344480188e+002	1.05597889683136e+006,-1.31779504772082e+003
6.45654229034650e+002	1.05597884955613e+006,-1.34849040749493e+003
6.60693448007591e+002	1.05597880005289e+006,-1.37990075189446e+003
6.76082975391976e+002	1.05597874821663e+006,-1.41204273489702e+003
6.91830970918931e+002	1.05597869393741e+006,-1.44493339838980e+003
7.07945784384132e+002	1.05597863710009e+006,-1.47859018120510e+003
7.24435960074984e+002	1.05597857758411e+006,-1.51303092836476e+003
7.41310241300911e+002	1.05597851526324e+006,-1.54827390054143e+003
7.58577575029177e+002	1.05597845000527e+006,-1.58433778373858e+003
7.76247116628685e+002	1.05597838167180e+006,-1.62124169919736e+003
7.94328234724275e+002	1.05597831011787e+006,-1.65900521353290e+003
8.12830516164092e+002	1.05597823519171e+006,-1.69764834910799e+003
8.31763771102664e+002	1.05597815673440e+006,-1.73719159464634e+003
8.51138038202369e+002	1.05597807457951e+006,-1.77765591609527e+003
8.70963589956073e+002	1.05597798855279e+006,-1.81906276773979e+003
8.91250938133738e+002	1.05597789847176e+006,-1.86143410357583e+003
9.12010839355902e+002	1.05597780414534e+006,-1.90479238894789e+003
9.33254300796983e+002	1.05597770537347e+006,-1.94916061245919e+003
