Freq.	V(vout)
1.00000000000000e+000	2.03025632198097e+000,-4.05936654772294e-006
1.02329299228075e+000	2.03025632198077e+000,-4.15392134130077e-006
1.04712854805090e+000	2.03025632198055e+000,-4.25067859904501e-006
1.07151930523761e+000	2.03025632198033e+000,-4.34968962280002e-006
1.09647819614318e+000	2.03025632198009e+000,-4.45100690964226e-006
1.12201845430196e+000	2.03025632197985e+000,-4.55468417929016e-006
1.14815362149688e+000	2.03025632197959e+000,-4.66077640265953e-006
1.17489755493953e+000	2.03025632197932e+000,-4.76933983137625e-006
1.20226443461741e+000	2.03025632197904e+000,-4.88043202730542e-006
1.23026877081238e+000	2.03025632197875e+000,-4.99411189283593e-006
1.25892541179417e+000	2.03025632197844e+000,-5.11043970266404e-006
1.28824955169313e+000	2.03025632197812e+000,-5.22947713514922e-006
1.31825673855641e+000	2.03025632197777e+000,-5.35128730572761e-006
1.34896288259165e+000	2.03025632197743e+000,-5.47593479964524e-006
1.38038426460288e+000	2.03025632197706e+000,-5.60348570661783e-006
1.41253754462275e+000	2.03025632197666e+000,-5.73400765595810e-006
1.44543977074593e+000	2.03025632197626e+000,-5.86756985201770e-006
1.47910838816821e+000	2.03025632197584e+000,-6.00424311123401e-006
1.51356124843621e+000	2.03025632197539e+000,-6.14409989973648e-006
1.54881661891248e+000	2.03025632197493e+000,-6.28721437122436e-006
1.58489319246111e+000	2.03025632197443e+000,-6.43366240707247e-006
1.62181009735893e+000	2.03025632197393e+000,-6.58352165584642e-006
1.65958690743756e+000	2.03025632197338e+000,-6.73687157497111e-006
1.69824365246174e+000	2.03025632197282e+000,-6.89379347255631e-006
1.73780082874937e+000	2.03025632197224e+000,-7.05437055070302e-006
1.77827941003892e+000	2.03025632197163e+000,-7.21868794951778e-006
1.81970085860998e+000	2.03025632197098e+000,-7.38683279215159e-006
1.86208713666287e+000	2.03025632197031e+000,-7.55889423138684e-006
1.90546071796325e+000	2.03025632196960e+000,-7.73496349635660e-006
1.94984459975804e+000	2.03025632196886e+000,-7.91513394136974e-006
1.99526231496888e+000	2.03025632196809e+000,-8.09950109514173e-006
2.04173794466953e+000	2.03025632196728e+000,-8.28816271168678e-006
2.08929613085404e+000	2.03025632196643e+000,-8.48121882171710e-006
2.13796208950223e+000	2.03025632196553e+000,-8.67877178624504e-006
2.18776162394955e+000	2.03025632196460e+000,-8.88092635047267e-006
2.23872113856834e+000	2.03025632196362e+000,-9.08778969939691e-006
2.29086765276777e+000	2.03025632196261e+000,-9.29947151472262e-006
2.34422881531992e+000	2.03025632196154e+000,-9.51608403290019e-006
2.39883291901949e+000	2.03025632196042e+000,-9.73774210483666e-006
2.45470891568503e+000	2.03025632195925e+000,-9.96456325651600e-006
2.51188643150958e+000	2.03025632195802e+000,-1.01966677515462e-005
2.57039578276886e+000	2.03025632195673e+000,-1.04341786547681e-005
2.63026799189538e+000	2.03025632195538e+000,-1.06772218976116e-005
2.69153480392691e+000	2.03025632195398e+000,-1.09259263448465e-005
2.75422870333816e+000	2.03025632195250e+000,-1.11804238628417e-005
2.81838293126445e+000	2.03025632195096e+000,-1.14408493895774e-005
2.88403150312660e+000	2.03025632194935e+000,-1.17073410060950e-005
2.95120922666638e+000	2.03025632194765e+000,-1.19800400097851e-005
3.01995172040201e+000	2.03025632194588e+000,-1.22590909892662e-005
3.09029543251359e+000	2.03025632194401e+000,-1.25446419010298e-005
3.16227766016837e+000	2.03025632194207e+000,-1.28368441479843e-005
3.23593656929628e+000	2.03025632194004e+000,-1.31358526596352e-005
3.31131121482591e+000	2.03025632193790e+000,-1.34418259742269e-005
3.38844156139202e+000	2.03025632193566e+000,-1.37549263228814e-005
3.46736850452531e+000	2.03025632193333e+000,-1.40753197155714e-005
3.54813389233575e+000	2.03025632193088e+000,-1.44031760290005e-005
3.63078054770101e+000	2.03025632192831e+000,-1.47386690970708e-005
3.71535229097172e+000	2.03025632192563e+000,-1.50819768025673e-005
3.80189396320560e+000	2.03025632192282e+000,-1.54332811717947e-005
3.89045144994280e+000	2.03025632191987e+000,-1.57927684710261e-005
3.98107170553496e+000	2.03025632191679e+000,-1.61606293050575e-005
4.07380277804112e+000	2.03025632191357e+000,-1.65370587187161e-005
4.16869383470335e+000	2.03025632191018e+000,-1.69222562998033e-005
4.26579518801592e+000	2.03025632190664e+000,-1.73164262851569e-005
4.36515832240165e+000	2.03025632190294e+000,-1.77197776689362e-005
4.46683592150962e+000	2.03025632189906e+000,-1.81325243133677e-005
4.57088189614874e+000	2.03025632189498e+000,-1.85548850622523e-005
4.67735141287197e+000	2.03025632189074e+000,-1.89870838567328e-005
4.78630092322637e+000	2.03025632188628e+000,-1.94293498544496e-005
4.89778819368445e+000	2.03025632188161e+000,-1.98819175505998e-005
5.01187233627271e+000	2.03025632187673e+000,-2.03450269026170e-005
5.12861383991364e+000	2.03025632187160e+000,-2.08189234571870e-005
5.24807460249771e+000	2.03025632186626e+000,-2.13038584805569e-005
5.37031796370252e+000	2.03025632186064e+000,-2.18000890916754e-005
5.49540873857623e+000	2.03025632185476e+000,-2.23078783985887e-005
5.62341325190348e+000	2.03025632184861e+000,-2.28274956379062e-005
5.75439937337156e+000	2.03025632184217e+000,-2.33592163175624e-005
5.88843655355588e+000	2.03025632183543e+000,-2.39033223629047e-005
6.02559586074356e+000	2.03025632182835e+000,-2.44601022661694e-005
6.16595001861481e+000	2.03025632182096e+000,-2.50298512393985e-005
6.30957344480192e+000	2.03025632181322e+000,-2.56128713710782e-005
6.45654229034654e+000	2.03025632180511e+000,-2.62094717861741e-005
6.60693448007594e+000	2.03025632179662e+000,-2.68199688101327e-005
6.76082975391980e+000	2.03025632178773e+000,-2.74446861365683e-005
6.91830970918935e+000	2.03025632177841e+000,-2.80839549988397e-005
7.07945784384136e+000	2.03025632176867e+000,-2.87381143457976e-005
7.24435960074988e+000	2.03025632175846e+000,-2.94075110213759e-005
7.41310241300916e+000	2.03025632174777e+000,-3.00924999485295e-005
7.58577575029182e+000	2.03025632173657e+000,-3.07934443174905e-005
7.76247116628690e+000	2.03025632172486e+000,-3.15107157782168e-005
7.94328234724279e+000	2.03025632171258e+000,-3.22446946375325e-005
8.12830516164097e+000	2.03025632169973e+000,-3.29957700607537e-005
8.31763771102669e+000	2.03025632168626e+000,-3.37643402780012e-005
8.51138038202374e+000	2.03025632167217e+000,-3.45508127953738e-005
8.70963589956078e+000	2.03025632165742e+000,-3.53556046110229e-005
8.91250938133743e+000	2.03025632164197e+000,-3.61791424362153e-005
9.12010839355907e+000	2.03025632162578e+000,-3.70218629216152e-005
9.33254300796988e+000	2.03025632160884e+000,-3.78842128887631e-005
9.54992586021433e+000	2.03025632159109e+000,-3.87666495670446e-005
9.77237220955808e+000	2.03025632157251e+000,-3.96696408360344e-005
9.99999999999997e+000	2.03025632155307e+000,-4.05936654736600e-005
1.02329299228075e+001	2.03025632153270e+000,-4.15392134100523e-005
1.04712854805090e+001	2.03025632151136e+000,-4.25067859872261e-005
1.07151930523760e+001	2.03025632148903e+000,-4.34968962249424e-005
1.09647819614318e+001	2.03025632146564e+000,-4.45100690927765e-005
1.12201845430196e+001	2.03025632144115e+000,-4.55468417883874e-005
1.14815362149688e+001	2.03025632141551e+000,-4.66077640223686e-005
1.17489755493953e+001	2.03025632138866e+000,-4.76933983097620e-005
1.20226443461741e+001	2.03025632136055e+000,-4.88043202682034e-005
1.23026877081238e+001	2.03025632133109e+000,-4.99411189232550e-005
1.25892541179416e+001	2.03025632130026e+000,-5.11043970205670e-005
1.28824955169313e+001	2.03025632126797e+000,-5.22947713456003e-005
1.31825673855640e+001	2.03025632123418e+000,-5.35128730505720e-005
1.34896288259165e+001	2.03025632119877e+000,-5.47593479891606e-005
1.38038426460288e+001	2.03025632116171e+000,-5.60348570588038e-005
1.41253754462275e+001	2.03025632112289e+000,-5.73400765513876e-005
1.44543977074592e+001	2.03025632108224e+000,-5.86756985114822e-005
1.47910838816820e+001	2.03025632103968e+000,-6.00424311035744e-005
1.51356124843620e+001	2.03025632099513e+000,-6.14409989873114e-005
1.54881661891248e+001	2.03025632094845e+000,-6.28721437019800e-005
1.58489319246111e+001	2.03025632089960e+000,-6.43366240593749e-005
1.62181009735892e+001	2.03025632084843e+000,-6.58352165464101e-005
1.65958690743755e+001	2.03025632079486e+000,-6.73687157366247e-005
1.69824365246174e+001	2.03025632073874e+000,-6.89379347116347e-005
1.73780082874937e+001	2.03025632067999e+000,-7.05437054920451e-005
1.77827941003892e+001	2.03025632061848e+000,-7.21868794787724e-005
1.81970085860998e+001	2.03025632055406e+000,-7.38683279044900e-005
1.86208713666286e+001	2.03025632048662e+000,-7.55889422952897e-005
1.90546071796324e+001	2.03025632041598e+000,-7.73496349438307e-005
1.94984459975804e+001	2.03025632034202e+000,-7.91513393925353e-005
1.99526231496887e+001	2.03025632026458e+000,-8.09950109289680e-005
2.04173794466952e+001	2.03025632018348e+000,-8.28816270922130e-005
2.08929613085403e+001	2.03025632009857e+000,-8.48121881911167e-005
2.13796208950222e+001	2.03025632000965e+000,-8.67877178346875e-005
2.18776162394954e+001	2.03025631991654e+000,-8.88092634749468e-005
2.23872113856833e+001	2.03025631981904e+000,-9.08778969620632e-005
2.29086765276776e+001	2.03025631971695e+000,-9.29947151129198e-005
2.34422881531991e+001	2.03025631961004e+000,-9.51608402925667e-005
2.39883291901948e+001	2.03025631949810e+000,-9.73774210091437e-005
2.45470891568502e+001	2.03025631938088e+000,-9.96456325231261e-005
2.51188643150957e+001	2.03025631925814e+000,-1.01966677470220e-004
2.57039578276885e+001	2.03025631912962e+000,-1.04341786499243e-004
2.63026799189537e+001	2.03025631899503e+000,-1.06772218924370e-004
2.69153480392690e+001	2.03025631885411e+000,-1.09259263393070e-004
2.75422870333815e+001	2.03025631870654e+000,-1.11804238569173e-004
2.81838293126444e+001	2.03025631855201e+000,-1.14408493832221e-004
2.88403150312659e+001	2.03025631839021e+000,-1.17073409992804e-004
2.95120922666637e+001	2.03025631822078e+000,-1.19800400024737e-004
3.01995172040200e+001	2.03025631804336e+000,-1.22590909814197e-004
3.09029543251358e+001	2.03025631785759e+000,-1.25446418926336e-004
3.16227766016837e+001	2.03025631766305e+000,-1.28368441389951e-004
3.23593656929627e+001	2.03025631745935e+000,-1.31358526499989e-004
3.31131121482590e+001	2.03025631724606e+000,-1.34418259639009e-004
3.38844156139201e+001	2.03025631702269e+000,-1.37549263118173e-004
3.46736850452530e+001	2.03025631678881e+000,-1.40753197036808e-004
3.54813389233574e+001	2.03025631654392e+000,-1.44031760163104e-004
3.63078054770100e+001	2.03025631628747e+000,-1.47386690834575e-004
3.71535229097171e+001	2.03025631601894e+000,-1.50819767879860e-004
3.80189396320559e+001	2.03025631573776e+000,-1.54332811561722e-004
3.89045144994279e+001	2.03025631544332e+000,-1.57927684542529e-004
3.98107170553495e+001	2.03025631513500e+000,-1.61606292871320e-004
4.07380277804111e+001	2.03025631481216e+000,-1.65370586994902e-004
4.16869383470333e+001	2.03025631447410e+000,-1.69222562791888e-004
4.26579518801591e+001	2.03025631412010e+000,-1.73164262630724e-004
4.36515832240164e+001	2.03025631374943e+000,-1.77197776452733e-004
4.46683592150961e+001	2.03025631336128e+000,-1.81325242880296e-004
4.57088189614873e+001	2.03025631295485e+000,-1.85548850350652e-004
4.67735141287196e+001	2.03025631252926e+000,-1.89870838276324e-004
4.78630092322636e+001	2.03025631208361e+000,-1.94293498232438e-004
4.89778819368444e+001	2.03025631161696e+000,-1.98819175171782e-004
5.01187233627270e+001	2.03025631112831e+000,-2.03450268668045e-004
5.12861383991362e+001	2.03025631061664e+000,-2.08189234188208e-004
5.24807460249770e+001	2.03025631008085e+000,-2.13038584394378e-004
5.37031796370250e+001	2.03025630951982e+000,-2.18000890476104e-004
5.49540873857622e+001	2.03025630893234e+000,-2.23078783513719e-004
5.62341325190346e+001	2.03025630831717e+000,-2.28274955873137e-004
5.75439937337154e+001	2.03025630767301e+000,-2.33592162633501e-004
5.88843655355586e+001	2.03025630699850e+000,-2.39033223048165e-004
6.02559586074355e+001	2.03025630629219e+000,-2.44601022039184e-004
6.16595001861479e+001	2.03025630555260e+000,-2.50298511727081e-004
6.30957344480190e+001	2.03025630477815e+000,-2.56128712996102e-004
6.45654229034652e+001	2.03025630396719e+000,-2.62094717096109e-004
6.60693448007593e+001	2.03025630311803e+000,-2.68199687280915e-004
6.76082975391978e+001	2.03025630222885e+000,-2.74446860486430e-004
6.91830970918933e+001	2.03025630129775e+000,-2.80839549046416e-004
7.07945784384134e+001	2.03025630032278e+000,-2.87381142448605e-004
7.24435960074986e+001	2.03025629930186e+000,-2.94075109132057e-004
7.41310241300914e+001	2.03025629823282e+000,-3.00924998326341e-004
7.58577575029180e+001	2.03025629711340e+000,-3.07934441933002e-004
7.76247116628688e+001	2.03025629594122e+000,-3.15107156451509e-004
7.94328234724277e+001	2.03025629471380e+000,-3.22446944949463e-004
8.12830516164095e+001	2.03025629342853e+000,-3.29957699079726e-004
8.31763771102667e+001	2.03025629208269e+000,-3.37643401142955e-004
8.51138038202372e+001	2.03025629067343e+000,-3.45508126199646e-004
8.70963589956076e+001	2.03025628919775e+000,-3.53556044230677e-004
8.91250938133741e+001	2.03025628765252e+000,-3.61791422348170e-004
9.12010839355905e+001	2.03025628603447e+000,-3.70218627058113e-004
9.33254300796986e+001	2.03025628434016e+000,-3.78842126575244e-004
9.54992586021431e+001	2.03025628256600e+000,-3.87666493192495e-004
9.77237220955805e+001	2.03025628070822e+000,-3.96696405705267e-004
9.99999999999995e+001	2.03025627876290e+000,-4.05936651891766e-004
1.02329299228075e+002	2.03025627672588e+000,-4.15392131052204e-004
1.04712854805089e+002	2.03025627459287e+000,-4.25067856605835e-004
1.07151930523760e+002	2.03025627235933e+000,-4.34968958749494e-004
1.09647819614318e+002	2.03025627002053e+000,-4.45100687177445e-004
1.12201845430196e+002	2.03025626757151e+000,-4.55468413865367e-004
1.14815362149688e+002	2.03025626500707e+000,-4.66077635917820e-004
1.17489755493952e+002	2.03025626232177e+000,-4.76933978483766e-004
1.20226443461741e+002	2.03025625950991e+000,-4.88043197738302e-004
1.23026877081237e+002	2.03025625656554e+000,-4.99411183934988e-004
1.25892541179416e+002	2.03025625348241e+000,-5.11043964529305e-004
1.28824955169313e+002	2.03025625025397e+000,-5.22947707373619e-004
1.31825673855640e+002	2.03025624687337e+000,-5.35128723988478e-004
1.34896288259165e+002	2.03025624333345e+000,-5.47593472908107e-004
1.38038426460288e+002	2.03025623962670e+000,-5.60348563105527e-004
1.41253754462275e+002	2.03025623574526e+000,-5.73400757495800e-004
1.44543977074592e+002	2.03025623168090e+000,-5.86756976523269e-004
1.47910838816820e+002	2.03025622742498e+000,-6.00424301829704e-004
1.51356124843620e+002	2.03025622296849e+000,-6.14409980008986e-004
1.54881661891247e+002	2.03025621830197e+000,-6.28721426450115e-004
1.58489319246110e+002	2.03025621341553e+000,-6.43366229268020e-004
1.62181009735892e+002	2.03025620829879e+000,-6.58352153328524e-004
1.65958690743755e+002	2.03025620294091e+000,-6.73687144362843e-004
1.69824365246173e+002	2.03025619733052e+000,-6.89379333182636e-004
1.73780082874936e+002	2.03025619145573e+000,-7.05437039990131e-004
1.77827941003891e+002	2.03025618530406e+000,-7.21868778789763e-004
1.81970085860997e+002	2.03025617886247e+000,-7.38683261902746e-004
1.86208713666286e+002	2.03025617211730e+000,-7.55889404585065e-004
1.90546071796323e+002	2.03025616505423e+000,-7.73496329756497e-004
1.94984459975803e+002	2.03025615765830e+000,-7.91513372836013e-004
1.99526231496887e+002	2.03025614991382e+000,-8.09950086692032e-004
2.04173794466952e+002	2.03025614180433e+000,-8.28816246708552e-004
2.08929613085403e+002	2.03025613331266e+000,-8.48121855965752e-004
2.13796208950222e+002	2.03025612442081e+000,-8.67877150545555e-004
2.18776162394954e+002	2.03025611510987e+000,-8.88092604959846e-004
2.23872113856832e+002	2.03025610536013e+000,-9.08778937700748e-004
2.29086765276776e+002	2.03025609515091e+000,-9.29947116926445e-004
2.34422881531991e+002	2.03025608446054e+000,-9.51608366276201e-004
2.39883291901947e+002	2.03025607326633e+000,-9.73774170821029e-004
2.45470891568501e+002	2.03025606154458e+000,-9.96456283151947e-004
2.51188643150956e+002	2.03025604927038e+000,-1.01966672961383e-003
2.57039578276885e+002	2.03025603641772e+000,-1.04341781667931e-003
2.63026799189536e+002	2.03025602295933e+000,-1.06772213747582e-003
2.69153480392690e+002	2.03025600886668e+000,-1.09259257845985e-003
2.75422870333815e+002	2.03025599410985e+000,-1.11804232625365e-003
2.81838293126443e+002	2.03025597865755e+000,-1.14408487463345e-003
2.88403150312659e+002	2.03025596247702e+000,-1.17073403168405e-003
2.95120922666637e+002	2.03025594553392e+000,-1.19800392712249e-003
3.01995172040200e+002	2.03025592779232e+000,-1.22590901978698e-003
3.09029543251357e+002	2.03025590921457e+000,-1.25446410530513e-003
3.16227766016836e+002	2.03025588976129e+000,-1.28368432393649e-003
3.23593656929626e+002	2.03025586939121e+000,-1.31358516860222e-003
3.31131121482589e+002	2.03025584806110e+000,-1.34418249309889e-003
3.38844156139200e+002	2.03025582572574e+000,-1.37549252050292e-003
3.46736850452529e+002	2.03025580233775e+000,-1.40753185177396e-003
3.54813389233573e+002	2.03025577784751e+000,-1.44031747455525e-003
3.63078054770099e+002	2.03025575220309e+000,-1.47386677218124e-003
3.71535229097170e+002	2.03025572535009e+000,-1.50819753289551e-003
3.80189396320558e+002	2.03025569723153e+000,-1.54332795927989e-003
3.89045144994278e+002	2.03025566778780e+000,-1.57927667790588e-003
3.98107170553494e+002	2.03025563695642e+000,-1.61606274921357e-003
4.07380277804110e+002	2.03025560467200e+000,-1.65370567761210e-003
4.16869383470332e+002	2.03025557086607e+000,-1.69222542182596e-003
4.26579518801589e+002	2.03025553546692e+000,-1.73164240547429e-003
4.36515832240163e+002	2.03025549839945e+000,-1.77197752790031e-003
4.46683592150960e+002	2.03025545958504e+000,-1.81325217525258e-003
4.57088189614872e+002	2.03025541894138e+000,-1.85548823182241e-003
4.67735141287195e+002	2.03025537638223e+000,-1.89870809164907e-003
4.78630092322635e+002	2.03025533181734e+000,-1.94293467038941e-003
4.89778819368443e+002	2.03025528515216e+000,-1.98819141747362e-003
5.01187233627268e+002	2.03025523628772e+000,-2.03450232853113e-003
5.12861383991361e+002	2.03025518512039e+000,-2.08189195811788e-003
5.24807460249769e+002	2.03025513154159e+000,-2.13038543273369e-003
5.37031796370249e+002	2.03025507543771e+000,-2.18000846414172e-003
5.49540873857620e+002	2.03025501668974e+000,-2.23078736300525e-003
5.62341325190345e+002	2.03025495517305e+000,-2.28274905283263e-003
5.75439937337152e+002	2.03025489075718e+000,-2.33592108425530e-003
5.88843655355584e+002	2.03025482330549e+000,-2.39033164963227e-003
6.02559586074353e+002	2.03025475267489e+000,-2.44600959800031e-003
6.16595001861477e+002	2.03025467871560e+000,-2.50298445036566e-003
6.30957344480188e+002	2.03025460127068e+000,-2.56128641535997e-003
6.45654229034650e+002	2.03025452017591e+000,-2.62094640525154e-003
6.60693448007591e+002	2.03025443525926e+000,-2.68199605233699e-003
6.76082975391976e+002	2.03025434634060e+000,-2.74446772571373e-003
6.91830970918931e+002	2.03025425323136e+000,-2.80839454843567e-003
7.07945784384132e+002	2.03025415573400e+000,-2.87381041508484e-003
7.24435960074984e+002	2.03025405364174e+000,-2.94075000972816e-003
7.41310241300911e+002	2.03025394673802e+000,-3.00924882431597e-003
7.58577575029177e+002	2.03025383479608e+000,-3.07934317749562e-003
7.76247116628685e+002	2.03025371757849e+000,-3.15107023386449e-003
7.94328234724275e+002	2.03025359483659e+000,-3.22446802367871e-003
8.12830516164092e+002	2.03025346631006e+000,-3.29957546300650e-003
8.31763771102664e+002	2.03025333172626e+000,-3.37643237437225e-003
8.51138038202369e+002	2.03025319079973e+000,-3.45507950785743e-003
8.70963589956073e+002	2.03025304323153e+000,-3.53555856271388e-003
8.91250938133738e+002	2.03025288870865e+000,-3.61791220946240e-003
9.12010839355902e+002	2.03025272690335e+000,-3.70218411251973e-003
9.33254300796983e+002	2.03025255747239e+000,-3.78841895334825e-003
